!File created by NanoVNA
# Hz S RI R 50
  10000000 -0.298665120  0.011413237  0.630444032 -0.032878898 0 0 0 0
  44950000 -0.286237376  0.038921816  0.626096192 -0.114944072 0 0 0 0
  79900000 -0.269533408  0.068094792  0.611652224 -0.205868544 0 0 0 0
 114850000 -0.244020736  0.101769424  0.578986048 -0.304858080 0 0 0 0
 149800000 -0.207519072  0.122811432  0.518704832 -0.391581920 0 0 0 0
 184750000 -0.161003472  0.133710488  0.449335136 -0.457566816 0 0 0 0
 219700000 -0.109380648  0.132500368  0.377884224 -0.511935776 0 0 0 0
 254650000 -0.058502196  0.120497032  0.301839168 -0.558855808 0 0 0 0
 289600000 -0.012114210  0.100550112  0.221442048 -0.598665984 0 0 0 0
 324550000  0.031096768  0.074434272  0.129549656 -0.626567168 0 0 0 0
 359500000  0.073302720  0.039726032  0.033120100 -0.637467008 0 0 0 0
 394450000  0.114375000 -0.005721020 -0.060685588 -0.632352192 0 0 0 0
 429400000  0.151259232 -0.065067060 -0.153311296 -0.615492160 0 0 0 0
 464350000  0.177902128 -0.135847232 -0.247144352 -0.581843200 0 0 0 0
 499300000  0.190369376 -0.211103872 -0.332611040 -0.527802880 0 0 0 0
 534250000  0.187148208 -0.283039616 -0.399042784 -0.459242656 0 0 0 0
 569200000  0.171410352 -0.348118816 -0.448111776 -0.388872672 0 0 0 0
 604150000  0.145413760 -0.404492608 -0.487374112 -0.321099200 0 0 0 0
 639100000  0.110303144 -0.454610528 -0.524035680 -0.250552864 0 0 0 0
 674050000  0.065756484 -0.500655712 -0.551643648 -0.166973840 0 0 0 0
 709000000  0.014275869 -0.538726080 -0.555430144 -0.074740656 0 0 0 0
 743950000 -0.039812352 -0.570986240 -0.535774592  0.002489395 0 0 0 0
 778900000 -0.089799456 -0.592569792 -0.509966016  0.058842036 0 0 0 0
 813850000 -0.137766960 -0.603349376 -0.493996224  0.100846880 0 0 0 0
 848800000 -0.182690224 -0.602447296 -0.489886592  0.148539984 0 0 0 0
 883750000 -0.223789680 -0.589965056 -0.485083712  0.212781280 0 0 0 0
 918700000 -0.268120528 -0.565164480 -0.458025344  0.293191008 0 0 0 0
 953650000 -0.306782176 -0.531556736 -0.404871680  0.360263936 0 0 0 0
 988600000 -0.342786144 -0.493832448 -0.341796288  0.404273184 0 0 0 0
1023550000 -0.369105824 -0.452563200 -0.287824224  0.431253056 0 0 0 0
1058500000 -0.385230240 -0.410339616 -0.247437968  0.457871872 0 0 0 0
1093450000 -0.388424128 -0.362923104 -0.208568592  0.499994272 0 0 0 0
1128400000 -0.372295680 -0.306630304 -0.148373904  0.557004160 0 0 0 0
1163350000 -0.334871936 -0.242408096 -0.054533504  0.605826688 0 0 0 0
1198300000 -0.268911456 -0.177280752  0.058055452  0.621423424 0 0 0 0
1233250000 -0.178956256 -0.128971216  0.171656832  0.609918080 0 0 0 0
1268200000 -0.077700936 -0.114714056  0.286597952  0.573427776 0 0 0 0
1303150000  0.017644948 -0.137071200  0.394808384  0.502157632 0 0 0 0
1338100000  0.096996552 -0.189279088  0.471385344  0.404346560 0 0 0 0
1373050000  0.160723024 -0.264144448  0.515722688  0.298427232 0 0 0 0
1408000000  0.207592928 -0.356409472  0.534764352  0.197180512 0 0 0 0
1442950000  0.237681728 -0.456989440  0.535340896  0.100335424 0 0 0 0
1477900000  0.243116048 -0.550860992  0.516403264  0.009383851 0 0 0 0
1512850000  0.227811792 -0.628952320  0.479617792 -0.065312788 0 0 0 0
1547800000  0.198943696 -0.687714432  0.436155904 -0.118955808 0 0 0 0
1582750000  0.158465248 -0.724471680  0.395148192 -0.159304304 0 0 0 0
1617700000  0.105992448 -0.757817600  0.358114400 -0.193793776 0 0 0 0
1652650000  0.054424504 -0.778236032  0.324570944 -0.225996704 0 0 0 0
1687600000  0.006109409 -0.798240256  0.287593024 -0.255629424 0 0 0 0
1722550000 -0.036083992 -0.814882304  0.244190704 -0.277059296 0 0 0 0
1757500000 -0.072690000 -0.822612672  0.208743696 -0.279276896 0 0 0 0
1792450000 -0.091828848 -0.833317248  0.179578496 -0.282111968 0 0 0 0
1827400000 -0.117352664 -0.827033856  0.160107248 -0.291121344 0 0 0 0
1862350000 -0.134742656 -0.813718144  0.147309008 -0.309833056 0 0 0 0
1897300000 -0.162980512 -0.790360000  0.121943048 -0.339606368 0 0 0 0
1932250000 -0.193171584 -0.752777344  0.081941392 -0.370136544 0 0 0 0
1967200000 -0.234043632 -0.715063872  0.024049624 -0.391508416 0 0 0 0
2002150000 -0.261054512 -0.674867072 -0.034884924 -0.398085600 0 0 0 0
2037100000 -0.280856928 -0.635834368 -0.085437040 -0.397977472 0 0 0 0
2072050000 -0.283697344 -0.586312448 -0.141718352 -0.397775904 0 0 0 0
2107000000 -0.259283072 -0.522783744 -0.214937600 -0.393110816 0 0 0 0
2141950000 -0.185008496 -0.463084288 -0.302174816 -0.362445376 0 0 0 0
2176900000 -0.074604064 -0.417725440 -0.383367712 -0.295508896 0 0 0 0
2211850000  0.039440108 -0.412282912 -0.437361792 -0.201218080 0 0 0 0
2246800000  0.125869472 -0.439050304 -0.457191584 -0.096119376 0 0 0 0
2281750000  0.178177120 -0.482170080 -0.439132928  0.004283920 0 0 0 0
2316700000  0.201947328 -0.538169920 -0.396636224  0.084272920 0 0 0 0
2351650000  0.204313120 -0.600482304 -0.348081280  0.132271048 0 0 0 0
2386600000  0.193885920 -0.672457344 -0.299996384  0.172995488 0 0 0 0
2421550000  0.183103648 -0.737351744 -0.251178976  0.204021984 0 0 0 0
2456500000  0.184872624 -0.782351424 -0.197033856  0.220830720 0 0 0 0
2491450000  0.191023808 -0.820205504 -0.145829440  0.217759360 0 0 0 0
2526400000  0.210049840 -0.836690432 -0.112527472  0.201777728 0 0 0 0
2561350000  0.209278976 -0.837037056 -0.097499152  0.190308576 0 0 0 0
2596300000  0.182516576 -0.833730816 -0.092738096  0.187601664 0 0 0 0
2631250000  0.135325504 -0.837917760 -0.084175464  0.196467632 0 0 0 0
2666200000  0.094317616 -0.846612352 -0.064578476  0.215530944 0 0 0 0
2701150000  0.032769538 -0.852952640 -0.034376392  0.230674464 0 0 0 0
2736100000  0.006157825 -0.864428864  0.011951288  0.228704720 0 0 0 0
2771050000  0.018324548 -0.874088256  0.045845532  0.201288768 0 0 0 0
2806000000  0.046675256 -0.875728256  0.048920808  0.175251968 0 0 0 0
2840950000  0.073479896 -0.868176320  0.043815172  0.162901264 0 0 0 0
2875900000  0.097449344 -0.844930880  0.041107548  0.172287808 0 0 0 0
2910850000  0.095374752 -0.817979008  0.053422640  0.191898816 0 0 0 0
2945800000  0.046463532 -0.781315968  0.089337968  0.212693008 0 0 0 0
2980750000 -0.002057429 -0.749715776  0.145664944  0.218237312 0 0 0 0
3015700000 -0.049077164 -0.724548864  0.213921520  0.179584400 0 0 0 0
3050650000 -0.047410284 -0.704253504  0.244465344  0.105837624 0 0 0 0
3085600000 -0.015699121 -0.708321984  0.231070656  0.045187040 0 0 0 0
3120550000  0.047562348 -0.705361024  0.205769872  0.014868857 0 0 0 0
3155500000  0.131709920 -0.701412544  0.191801392  0.004945977 0 0 0 0
3190450000  0.234743680 -0.687180608  0.193682832 -0.003122968 0 0 0 0
3225400000  0.271514848 -0.684539904  0.203530016 -0.029272910 0 0 0 0
3260350000  0.294089984 -0.675253504  0.213347600 -0.063475000 0 0 0 0
3295300000  0.263228656 -0.680652800  0.204199152 -0.120187640 0 0 0 0
3330250000  0.209373456 -0.697914496  0.157028496 -0.169725824 0 0 0 0
3365200000  0.162068432 -0.724154688  0.089065672 -0.176584720 0 0 0 0
3400150000  0.148573824 -0.753197760  0.055477968 -0.144898816 0 0 0 0
3435100000  0.168815696 -0.799248512  0.041608024 -0.119189848 0 0 0 0
3470050000  0.203013616 -0.803435648  0.040747376 -0.106195200 0 0 0 0
3505000000  0.283055392 -0.818843904  0.046398336 -0.105640168 0 0 0 0
3539950000  0.361636832 -0.828901312  0.046998936 -0.116815616 0 0 0 0
3574900000  0.370897024 -0.820934464  0.038640708 -0.135770032 0 0 0 0
3609850000  0.334726848 -0.785268096  0.012711202 -0.153420576 0 0 0 0
3644800000  0.219241344 -0.765314112 -0.027087162 -0.150360256 0 0 0 0
3679750000  0.112536936 -0.728495488 -0.054044916 -0.123498952 0 0 0 0
3714700000  0.032112576 -0.729540224 -0.058312808 -0.096774560 0 0 0 0
3749650000  0.014703204 -0.754355776 -0.053179056 -0.082329056 0 0 0 0
3784600000  0.085790856 -0.798180032 -0.047071208 -0.080210272 0 0 0 0
3819550000  0.204336048 -0.829221696 -0.048184816 -0.084676432 0 0 0 0
3854500000  0.339548864 -0.827602112 -0.056527596 -0.092210696 0 0 0 0
3889450000  0.407884832 -0.786438080 -0.075196520 -0.097054232 0 0 0 0
3924400000  0.383923072 -0.741211840 -0.104945088 -0.087815384 0 0 0 0
3959350000  0.284654272 -0.652731520 -0.129762992 -0.051466188 0 0 0 0
3994300000  0.144061504 -0.533384512 -0.123583640 -0.008250928 0 0 0 0
4029250000  0.021806782 -0.474492032 -0.101665384  0.008011735 0 0 0 0
4064200000 -0.044269240 -0.481699168 -0.086242008  0.010681201 0 0 0 0
4099150000 -0.024793816 -0.535193376 -0.080215040  0.008060475 0 0 0 0
4134100000  0.083223864 -0.627920640 -0.080949184  0.007755124 0 0 0 0
4169050000  0.246885856 -0.708183168 -0.086473240  0.011439497 0 0 0 0
4204000000  0.412535648 -0.752110336 -0.094988016  0.022183556 0 0 0 0
4238950000  0.536035552 -0.738492800 -0.096784584  0.047968496 0 0 0 0
4273900000  0.526768512 -0.605054400 -0.072970272  0.074067296 0 0 0 0
4308850000  0.480013088 -0.391023296 -0.046956676  0.070692736 0 0 0 0
4343800000  0.408746400 -0.201343328 -0.034029216  0.060399300 0 0 0 0
4378750000  0.317143744 -0.094101968 -0.033526696  0.052805688 0 0 0 0
4413700000  0.251084272 -0.084949352 -0.034795260  0.051460456 0 0 0 0
4448650000  0.242497328 -0.173179504 -0.037564728  0.054548076 0 0 0 0
4483600000  0.323188704 -0.336171008 -0.038483928  0.063180416 0 0 0 0
4518550000  0.462916512 -0.546752448 -0.034050336  0.077752144 0 0 0 0
4553500000  0.571100736 -0.710247680 -0.014662395  0.091042256 0 0 0 0
4588450000  0.640236096 -0.701886080  0.008659794  0.085680152 0 0 0 0
4623400000  0.710443264 -0.553664960  0.018457182  0.072054480 0 0 0 0
4658350000  0.750538048 -0.373321216  0.018687872  0.064163284 0 0 0 0
4693300000  0.728003648 -0.232768912  0.020842850  0.061549724 0 0 0 0
4728250000  0.682720192 -0.138058496  0.023324992  0.062154596 0 0 0 0
4763200000  0.654115200 -0.122286056  0.029718576  0.063003772 0 0 0 0
4798150000  0.646033344 -0.244885088  0.039501460  0.064820408 0 0 0 0
4833100000  0.661271040 -0.415033504  0.054536496  0.063644624 0 0 0 0
4868050000  0.678124544 -0.595463872  0.070402912  0.048917508 0 0 0 0
4903000000  0.700657856 -0.667487616  0.071126504  0.030608276 0 0 0 0
4937950000  0.766559872 -0.630428032  0.064402328  0.019225024 0 0 0 0
4972900000  0.794217088 -0.544751616  0.059583868  0.013794902 0 0 0 0
5007850000  0.828633344 -0.432473952  0.058715640  0.009789506 0 0 0 0
5042800000  0.829598080 -0.314101344  0.060089012  0.005526447 0 0 0 0
5077750000  0.818830208 -0.240008000  0.062343140  0.000078174 0 0 0 0
5112700000  0.797934976 -0.279084672  0.066633480 -0.007538184 0 0 0 0
5147650000  0.769106816 -0.376352736  0.068244888 -0.018517880 0 0 0 0
5182600000  0.745675776 -0.486252352  0.062446008 -0.029281138 0 0 0 0
5217550000  0.724192512 -0.576051008  0.050290244 -0.035223192 0 0 0 0
5252500000  0.754524416 -0.591053504  0.043200228 -0.032776122 0 0 0 0
5287450000  0.806439232 -0.556822784  0.039498768 -0.031734478 0 0 0 0
5322400000  0.849083072 -0.483894752  0.037998224 -0.033251420 0 0 0 0
5357350000  0.861589504 -0.364924576  0.036703492 -0.037205672 0 0 0 0
5392300000  0.876055808 -0.285009824  0.033869256 -0.044274988 0 0 0 0
5427250000  0.856935872 -0.269799904  0.030498838 -0.052690200 0 0 0 0
5462200000  0.829758720 -0.307184096  0.022426056 -0.061326876 0 0 0 0
5497150000  0.795385088 -0.402195072  0.008490803 -0.064911904 0 0 0 0
5532100000  0.768303616 -0.475635104 -0.000700214 -0.061840836 0 0 0 0
5567050000  0.769299200 -0.528508960 -0.004720282 -0.057288636 0 0 0 0
5602000000  0.814964416 -0.511354688 -0.006141692 -0.056102460 0 0 0 0
5636950000  0.861008704 -0.450727040 -0.010404057 -0.056706256 0 0 0 0
5671900000  0.856515072 -0.358510976 -0.017291120 -0.056886760 0 0 0 0
5706850000  0.888274176 -0.248715984 -0.024945920 -0.057963556 0 0 0 0
5741800000  0.891623424 -0.220415184 -0.039808272 -0.054131840 0 0 0 0
5776750000  0.871666880 -0.205595200 -0.051177492 -0.046321668 0 0 0 0
5811700000  0.857155072 -0.250155392 -0.057801524 -0.030884692 0 0 0 0
5846650000  0.824265152 -0.323764352 -0.055366988 -0.017877012 0 0 0 0
5881600000  0.846104704 -0.383567456 -0.050040864 -0.011918674 0 0 0 0
5916550000  0.865741632 -0.410139488 -0.046325956 -0.008689381 0 0 0 0
5951500000  0.898443520 -0.385701088 -0.046166356 -0.006330303 0 0 0 0
5986450000  0.912081152 -0.303277184 -0.046924860 -0.002380602 0 0 0 0
6021400000  0.954384832 -0.224071376 -0.049270392  0.002728810 0 0 0 0
6056350000  0.954987136 -0.154804448 -0.051507328  0.010297728 0 0 0 0
6091300000  0.943548672 -0.138448048 -0.048548148  0.020080842 0 0 0 0
6126250000  0.932582592 -0.154553856 -0.041599004  0.024429518 0 0 0 0
6161200000  0.918287232 -0.216123792 -0.033072424  0.024671882 0 0 0 0
6196150000  0.907519680 -0.294652128 -0.028047306  0.021587490 0 0 0 0
6231100000  0.923615488 -0.328138464 -0.025770088  0.019896544 0 0 0 0
6266050000  0.937836864 -0.382600896 -0.025548336  0.021274542 0 0 0 0
6301000000  0.954212736 -0.283604544 -0.025657576  0.024534266 0 0 0 0
6335950000  1.008510948 -0.206471808 -0.025712080  0.034447528 0 0 0 0
6370900000  0.983096384 -0.137317120 -0.021953012  0.038326960 0 0 0 0
6405850000  0.969993920 -0.095869696 -0.013155032  0.046182548 0 0 0 0
6440800000  0.944045312 -0.120836280 -0.002968612  0.043385712 0 0 0 0
6475750000  0.914922688 -0.147317376  0.004235314  0.040776016 0 0 0 0
6510700000  0.933945344 -0.203966336  0.001176336  0.036122824 0 0 0 0
6545650000  0.937521472 -0.319044608  0.004159956  0.034688084 0 0 0 0
6580600000  0.917243712 -0.275696576  0.001531736  0.041770660 0 0 0 0
6615550000  0.935819968 -0.229007520  0.007121900  0.046889552 0 0 0 0
6650500000  0.949642112 -0.180893632  0.012998143  0.050926004 0 0 0 0
6685450000  0.943232768 -0.106616520  0.027895592  0.050452776 0 0 0 0
6720400000  0.923802112 -0.076391424  0.043916476  0.038846972 0 0 0 0
6755350000  0.918025600 -0.022998676  0.048445032  0.025925406 0 0 0 0
6790300000  0.926208832 -0.039426216  0.045961940  0.012552383 0 0 0 0
6825250000  0.915968960 -0.042768460  0.040326460  0.007176501 0 0 0 0
6860200000  0.912603520 -0.107580560  0.037125176  0.007378062 0 0 0 0
6895150000  0.887377728 -0.091909216  0.039354256  0.009754307 0 0 0 0
6930100000  0.938314624 -0.094321352  0.041364224  0.001504045 0 0 0 0
6965050000  0.985452096 -0.092877216  0.047974692 -0.007602728 0 0 0 0
7000000000  1.006377697 -0.015962741  0.043627772 -0.017903244 0 0 0 0
