!File created by NanoVNA
# Hz S RI R 50
  10000000 -0.298636512  0.011379568
  44950000 -0.286130528  0.038900776
  79900000 -0.269565632  0.068187624
 114850000 -0.243998272  0.101823408
 149800000 -0.207517968  0.122866376
 184750000 -0.160941232  0.133715304
 219700000 -0.109416176  0.132515672
 254650000 -0.058665356  0.120643400
 289600000 -0.012058127  0.100603296
 324550000  0.031084988  0.074393592
 359500000  0.073474024  0.039748736
 394450000  0.114645720 -0.005783932
 429400000  0.151234688 -0.065400972
 464350000  0.177901488 -0.135678304
 499300000  0.190030000 -0.211217184
 534250000  0.187032112 -0.283399744
 569200000  0.171380448 -0.348069312
 604150000  0.145589264 -0.404445376
 639100000  0.110532496 -0.454594816
 674050000  0.065657384 -0.500553376
 709000000  0.013373337 -0.538846656
 743950000 -0.039586964 -0.570670528
 778900000 -0.089859520 -0.592215104
 813850000 -0.137046704 -0.603510528
 848800000 -0.182432064 -0.602598912
 883750000 -0.223394464 -0.590278080
 918700000 -0.266335040 -0.565932032
 953650000 -0.307096800 -0.532050976
 988600000 -0.343213344 -0.492920608
1023550000 -0.369091328 -0.452343040
1058500000 -0.384773952 -0.410511456
1093450000 -0.387314496 -0.364209216
1128400000 -0.371812896 -0.307018592
1163350000 -0.335031392 -0.242293216
1198300000 -0.269331424 -0.177016496
1233250000 -0.178505216 -0.129491512
1268200000 -0.078003808 -0.114805976
1303150000  0.017562198 -0.136793936
1338100000  0.097036152 -0.189143296
1373050000  0.160574800 -0.263901952
1408000000  0.209056176 -0.355544768
1442950000  0.236278656 -0.456845056
1477900000  0.242297648 -0.551228800
1512850000  0.230402336 -0.627921728
1547800000  0.195920976 -0.688025152
1582750000  0.156637920 -0.725164160
1617700000  0.108119832 -0.756929152
1652650000  0.054634244 -0.777583552
1687600000  0.008923041 -0.799196352
1722550000 -0.036845100 -0.813958400
1757500000 -0.071530032 -0.823730688
1792450000 -0.096221824 -0.832952832
1827400000 -0.114062976 -0.828276672
1862350000 -0.136752288 -0.813473856
1897300000 -0.163752848 -0.790345216
1932250000 -0.195514112 -0.751797952
1967200000 -0.230957104 -0.716790336
2002150000 -0.257284464 -0.676110848
2037100000 -0.283060128 -0.634385024
2072050000 -0.287379392 -0.585333760
2107000000 -0.258082592 -0.525506016
2141950000 -0.184540304 -0.463457792
2176900000 -0.075175720 -0.417790048
2211850000  0.041442812 -0.413083968
2246800000  0.126212168 -0.439273728
2281750000  0.180038320 -0.481757440
2316700000  0.205118384 -0.535220448
2351650000  0.206918976 -0.600924224
2386600000  0.197183696 -0.670660288
2421550000  0.182078816 -0.737448256
2456500000  0.184869344 -0.781824512
2491450000  0.190640048 -0.820120640
2526400000  0.207603232 -0.836571584
2561350000  0.215461328 -0.836939136
2596300000  0.187031808 -0.833020672
2631250000  0.130561456 -0.836503680
2666200000  0.091224752 -0.839463168
2701150000  0.028536106 -0.854830464
2736100000  0.011076425 -0.864229888
2771050000  0.018666026 -0.876548992
2806000000  0.044105244 -0.872615040
2840950000  0.078420112 -0.868907264
2875900000  0.098841648 -0.842105856
2910850000  0.101141696 -0.821452032
2945800000  0.052244240 -0.781094336
2980750000 -0.002745249 -0.750816768
3015700000 -0.048596980 -0.724943680
3050650000 -0.045565640 -0.704023616
3085600000 -0.017961036 -0.707930496
3120550000  0.043668596 -0.704517312
3155500000  0.136101312 -0.702055616
3190450000  0.225516720 -0.689034688
3225400000  0.278789568 -0.681862144
3260350000  0.296848544 -0.674996352
3295300000  0.260898672 -0.683712384
3330250000  0.211291440 -0.696361088
3365200000  0.163330848 -0.723969728
3400150000  0.140887328 -0.751044352
3435100000  0.163234656 -0.798661760
3470050000  0.210535040 -0.802945984
3505000000  0.283051392 -0.818052288
3539950000  0.365383552 -0.826379072
3574900000  0.368607904 -0.821930048
3609850000  0.333007904 -0.787621504
3644800000  0.219067088 -0.765004736
3679750000  0.112913464 -0.728340416
3714700000  0.035015520 -0.730017344
3749650000  0.014594997 -0.754529280
3784600000  0.090537088 -0.799092672
3819550000  0.201424752 -0.828945472
3854500000  0.341006432 -0.828562880
3889450000  0.402961728 -0.791378752
3924400000  0.386300352 -0.738893376
3959350000  0.285425632 -0.650643904
3994300000  0.143015152 -0.532710976
4029250000  0.019021510 -0.472937600
4064200000 -0.039572152 -0.482737536
4099150000 -0.025266342 -0.533684672
4134100000  0.088028424 -0.624954240
4169050000  0.245862496 -0.707872960
4204000000  0.409872864 -0.753616832
4238950000  0.536839424 -0.737451200
4273900000  0.529078720 -0.602659648
4308850000  0.477598048 -0.391724224
4343800000  0.409164256 -0.201309744
4378750000  0.317685120 -0.093565984
4413700000  0.249144048 -0.087457712
4448650000  0.243061360 -0.172174304
4483600000  0.325663712 -0.330520192
4518550000  0.463605440 -0.544441792
4553500000  0.571924352 -0.709612864
4588450000  0.639165120 -0.702894016
4623400000  0.707750592 -0.555811840
4658350000  0.743887488 -0.381046208
4693300000  0.733142528 -0.221994336
4728250000  0.682802240 -0.140333408
4763200000  0.654834112 -0.123347000
4798150000  0.646431040 -0.245386816
4833100000  0.659019264 -0.423953376
4868050000  0.678801344 -0.593886272
4903000000  0.699097024 -0.667048192
4937950000  0.760865088 -0.634007232
4972900000  0.784995136 -0.552968640
5007850000  0.840823424 -0.417174656
5042800000  0.829304640 -0.312311360
5077750000  0.818445632 -0.249464896
5112700000  0.799804288 -0.277249312
5147650000  0.770589760 -0.368148160
5182600000  0.745255552 -0.486941920
5217550000  0.724696192 -0.574774592
5252500000  0.751763136 -0.590033984
5287450000  0.812603584 -0.553144192
5322400000  0.848480896 -0.485436672
5357350000  0.855545088 -0.380800576
5392300000  0.875342912 -0.293164576
5427250000  0.853777216 -0.255591360
5462200000  0.830931584 -0.313239136
5497150000  0.793386816 -0.404082944
5532100000  0.766414336 -0.476847872
5567050000  0.775694208 -0.527107968
5602000000  0.822262208 -0.499688032
5636950000  0.853118976 -0.466078112
5671900000  0.855869440 -0.365555392
5706850000  0.892641536 -0.278972800
5741800000  0.890659776 -0.215413360
5776750000  0.872702912 -0.214647440
5811700000  0.856106496 -0.250748160
5846650000  0.831719360 -0.316850304
5881600000  0.838821952 -0.385882624
5916550000  0.867898368 -0.407738336
5951500000  0.901119872 -0.388061536
5986450000  0.913317248 -0.310315072
6021400000  0.956179328 -0.231250480
6056350000  0.954696896 -0.155556016
6091300000  0.944374720 -0.134618608
6126250000  0.933598016 -0.152685120
6161200000  0.919602368 -0.212071680
6196150000  0.899619840 -0.308293568
6231100000  0.921961152 -0.331300352
6266050000  0.938496256 -0.358397600
6301000000  0.950294464 -0.276314400
6335950000  1.005738259 -0.220428384
6370900000  0.990165824 -0.145190928
6405850000  0.964415552 -0.097581072
6440800000  0.935911616 -0.123023256
6475750000  0.930589056 -0.162841520
6510700000  0.926813312 -0.188009088
6545650000  0.927623232 -0.297705024
6580600000  0.935728128 -0.295411840
6615550000  0.950260352 -0.233751376
6650500000  0.960671744 -0.174705200
6685450000  0.963701312 -0.086613720
6720400000  0.928157184 -0.072316560
6755350000  0.929673856 -0.025771930
6790300000  0.931190720 -0.068754648
6825250000  0.900465600  0.002848031
6860200000  0.924169792 -0.071428080
6895150000  0.897181184 -0.089650960
6930100000  0.943418816 -0.115793520
6965050000  0.976828032 -0.085243608
7000000000  0.965172928 -0.044466276
