!File created by NanoVNA
# Hz S RI R 50
  10000000  0.016598596 -0.015196635  0.977462144 -0.050810356 0 0 0 0
  44950000  0.002103859 -0.077026656  0.941768128 -0.215405328 0 0 0 0
  79900000 -0.035777164 -0.124046288  0.882279872 -0.359081216 0 0 0 0
 114850000 -0.085397680 -0.146291776  0.808427456 -0.483157568 0 0 0 0
 149800000 -0.124848880 -0.151381456  0.722360704 -0.606556352 0 0 0 0
 184750000 -0.153860608 -0.147003376  0.608400256 -0.714823104 0 0 0 0
 219700000 -0.177413968 -0.138340272  0.470568864 -0.793829056 0 0 0 0
 254650000 -0.200126096 -0.121566096  0.329235808 -0.834243136 0 0 0 0
 289600000 -0.218272992 -0.091627800  0.207994224 -0.854689984 0 0 0 0
 324550000 -0.221559504 -0.047246144  0.088124680 -0.873102336 0 0 0 0
 359500000 -0.201815312  0.000349090 -0.044897488 -0.882535232 0 0 0 0
 394450000 -0.155894704  0.037618752 -0.184324048 -0.863138816 0 0 0 0
 429400000 -0.088666640  0.053082404 -0.316749824 -0.819306688 0 0 0 0
 464350000 -0.012902210  0.042165904 -0.441127680 -0.754854592 0 0 0 0
 499300000  0.060367404  0.008560663 -0.557969792 -0.666333440 0 0 0 0
 534250000  0.125558344 -0.042200308 -0.652940288 -0.553733248 0 0 0 0
 569200000  0.178325472 -0.106540152 -0.718077632 -0.424908608 0 0 0 0
 604150000  0.215506848 -0.182864720 -0.753012352 -0.297399200 0 0 0 0
 639100000  0.232030384 -0.269795264 -0.771858496 -0.177403040 0 0 0 0
 674050000  0.222756736 -0.364138112 -0.775742592 -0.049857968 0 0 0 0
 709000000  0.187254816 -0.453986496 -0.746582656  0.083592112 0 0 0 0
 743950000  0.135484976 -0.532447808 -0.681210176  0.191994272 0 0 0 0
 778900000  0.075733424 -0.592084928 -0.605380416  0.258635728 0 0 0 0
 813850000  0.012568036 -0.632614336 -0.548339840  0.297838624 0 0 0 0
 848800000 -0.049472064 -0.655284160 -0.513677664  0.338061984 0 0 0 0
 883750000 -0.107030632 -0.662165184 -0.485168704  0.395566688 0 0 0 0
 918700000 -0.169108000 -0.655452736 -0.431425440  0.470948224 0 0 0 0
 953650000 -0.228423104 -0.636629312 -0.346809824  0.529297056 0 0 0 0
 988600000 -0.287504832 -0.611290752 -0.256852096  0.551822336 0 0 0 0
1023550000 -0.338355200 -0.579301184 -0.186256512  0.550889472 0 0 0 0
1058500000 -0.381855712 -0.540991872 -0.141833408  0.551783040 0 0 0 0
1093450000 -0.413367552 -0.493125760 -0.103385544  0.575621888 0 0 0 0
1128400000 -0.426548288 -0.430015072 -0.042690224  0.621730816 0 0 0 0
1163350000 -0.419696256 -0.354745376  0.053312140  0.662189376 0 0 0 0
1198300000 -0.387445984 -0.266157024  0.172161952  0.666539200 0 0 0 0
1233250000 -0.325172064 -0.184641664  0.288361728  0.640978496 0 0 0 0
1268200000 -0.242784912 -0.124175080  0.401831136  0.595695104 0 0 0 0
1303150000 -0.147845952 -0.092188160  0.516822144  0.516470432 0 0 0 0
1338100000 -0.045620044 -0.091957424  0.606651776  0.406883520 0 0 0 0
1373050000  0.062180248 -0.128798696  0.661142080  0.269971744 0 0 0 0
1408000000  0.163791856 -0.207441216  0.669545536  0.134448096 0 0 0 0
1442950000  0.238982432 -0.318884960  0.648282368  0.017794908 0 0 0 0
1477900000  0.272654272 -0.435964320  0.609773824 -0.084677032 0 0 0 0
1512850000  0.270683040 -0.535664544  0.559831104 -0.165485040 0 0 0 0
1547800000  0.246489280 -0.610821184  0.502728640 -0.229777728 0 0 0 0
1582750000  0.204683440 -0.662589056  0.442104992 -0.283378848 0 0 0 0
1617700000  0.163316176 -0.703380992  0.385518912 -0.319263296 0 0 0 0
1652650000  0.116888256 -0.734578048  0.325972672 -0.348943584 0 0 0 0
1687600000  0.070389312 -0.768035712  0.272064640 -0.366837760 0 0 0 0
1722550000  0.022385560 -0.795230144  0.217433632 -0.376282464 0 0 0 0
1757500000 -0.015057656 -0.810216384  0.174048288 -0.374418688 0 0 0 0
1792450000 -0.043018988 -0.824112192  0.145798880 -0.372985440 0 0 0 0
1827400000 -0.065586508 -0.819818176  0.126579000 -0.384059648 0 0 0 0
1862350000 -0.088182096 -0.805642688  0.102608432 -0.409330656 0 0 0 0
1897300000 -0.112225624 -0.784042368  0.057392788 -0.442146976 0 0 0 0
1932250000 -0.133668272 -0.754434304  0.000783942 -0.467697120 0 0 0 0
1967200000 -0.168982256 -0.733975680 -0.077552064 -0.472525344 0 0 0 0
2002150000 -0.199033392 -0.704100928 -0.143082432 -0.460318240 0 0 0 0
2037100000 -0.225356912 -0.674747200 -0.195296816 -0.449010720 0 0 0 0
2072050000 -0.236916640 -0.636669248 -0.257192320 -0.439747680 0 0 0 0
2107000000 -0.215337344 -0.586609216 -0.334970240 -0.430358336 0 0 0 0
2141950000 -0.153324288 -0.537383616 -0.439332352 -0.385493408 0 0 0 0
2176900000 -0.062862404 -0.508538176 -0.532919776 -0.297791296 0 0 0 0
2211850000  0.017215354 -0.513594880 -0.590080768 -0.179429536 0 0 0 0
2246800000  0.065451556 -0.530911104 -0.603894144 -0.048800972 0 0 0 0
2281750000  0.084165136 -0.545190848 -0.583474368  0.065408640 0 0 0 0
2316700000  0.096522928 -0.559105664 -0.539285632  0.165428480 0 0 0 0
2351650000  0.106765048 -0.589495936 -0.490320960  0.237730816 0 0 0 0
2386600000  0.113181016 -0.640907584 -0.430517824  0.307934720 0 0 0 0
2421550000  0.115256488 -0.700346752 -0.366994976  0.365744544 0 0 0 0
2456500000  0.119900640 -0.741146176 -0.283106560  0.410726208 0 0 0 0
2491450000  0.119558408 -0.768544192 -0.199432656  0.423980672 0 0 0 0
2526400000  0.132082520 -0.765489344 -0.140501552  0.418942752 0 0 0 0
2561350000  0.141598128 -0.739470720 -0.094390520  0.427082176 0 0 0 0
2596300000  0.132540792 -0.717645376 -0.048759600  0.443745600 0 0 0 0
2631250000  0.113526312 -0.705629696  0.021148702  0.460396160 0 0 0 0
2666200000  0.097670440 -0.710458432  0.104832872  0.463384384 0 0 0 0
2701150000  0.064034508 -0.720211776  0.213639920  0.452104768 0 0 0 0
2736100000  0.068551920 -0.720945088  0.326430336  0.388532608 0 0 0 0
2771050000  0.112506328 -0.728404480  0.404681632  0.252138816 0 0 0 0
2806000000  0.181199088 -0.741577536  0.392056224  0.121564744 0 0 0 0
2840950000  0.254056896 -0.775615552  0.331073792  0.045221056 0 0 0 0
2875900000  0.284536704 -0.796794304  0.279994496  0.012002145 0 0 0 0
2910850000  0.297448224 -0.819064064  0.253492688 -0.002914485 0 0 0 0
2945800000  0.237677136 -0.842431104  0.244241856 -0.023554570 0 0 0 0
2980750000  0.163342544 -0.854827712  0.236008608 -0.058174224 0 0 0 0
3015700000  0.090431456 -0.873930688  0.194786816 -0.109481768 0 0 0 0
3050650000  0.041109936 -0.878495168  0.117459832 -0.109812968 0 0 0 0
3085600000  0.003764518 -0.886561152  0.074043336 -0.046874324 0 0 0 0
3120550000  0.002693791 -0.827365952  0.090836656  0.031349786 0 0 0 0
3155500000  0.134387568 -0.719847040  0.200852704  0.032927558 0 0 0 0
3190450000  0.289639776 -0.758803584  0.228533984 -0.052583280 0 0 0 0
3225400000  0.311433216 -0.810193216  0.216748240 -0.102568104 0 0 0 0
3260350000  0.281515808 -0.832140288  0.218531872 -0.144272112 0 0 0 0
3295300000  0.191212544 -0.840840704  0.195995648 -0.214756352 0 0 0 0
3330250000  0.103475360 -0.831620672  0.127407744 -0.267774608 0 0 0 0
3365200000  0.036128080 -0.827239552  0.046315836 -0.260425024 0 0 0 0
3400150000  0.001184941 -0.820782016  0.004794673 -0.224271456 0 0 0 0
3435100000  0.004414659 -0.831416960 -0.003409825 -0.202223520 0 0 0 0
3470050000  0.038682464 -0.797908288 -0.004878801 -0.206633552 0 0 0 0
3505000000  0.084473760 -0.764576704 -0.019748774 -0.237939440 0 0 0 0
3539950000  0.152059824 -0.700498752 -0.079668304 -0.272548064 0 0 0 0
3574900000  0.218846688 -0.597440512 -0.175864464 -0.269500288 0 0 0 0
3609850000  0.273305376 -0.517481440 -0.267283376 -0.202072976 0 0 0 0
3644800000  0.283405888 -0.514725984 -0.307890624 -0.082181400 0 0 0 0
3679750000  0.256441648 -0.560044608 -0.266438240  0.032109804 0 0 0 0
3714700000  0.214179792 -0.641683584 -0.188469104  0.067480256 0 0 0 0
3749650000  0.176209312 -0.722023424 -0.129741608  0.069483760 0 0 0 0
3784600000  0.234938976 -0.787679168 -0.102596896  0.053575448 0 0 0 0
3819550000  0.352289728 -0.815205312 -0.092125752  0.043986964 0 0 0 0
3854500000  0.458762304 -0.832630336 -0.089631352  0.041718084 0 0 0 0
3889450000  0.533721696 -0.797094976 -0.090536728  0.046117240 0 0 0 0
3924400000  0.504309536 -0.788802176 -0.086753752  0.061653632 0 0 0 0
3959350000  0.379627936 -0.757631040 -0.067638248  0.081111616 0 0 0 0
3994300000  0.196935648 -0.681340160 -0.037198360  0.080872472 0 0 0 0
4029250000  0.031313032 -0.639005760 -0.021409348  0.065167392 0 0 0 0
4064200000 -0.048826580 -0.642204416 -0.018730104  0.051717844 0 0 0 0
4099150000 -0.011716581 -0.674824448 -0.022729522  0.043844736 0 0 0 0
4134100000  0.104220160 -0.754750080 -0.027005942  0.041301488 0 0 0 0
4169050000  0.273268416 -0.817960896 -0.031845030  0.043325224 0 0 0 0
4204000000  0.423759200 -0.853247936 -0.036679200  0.050979760 0 0 0 0
4238950000  0.514210816 -0.833853888 -0.031137030  0.067985768 0 0 0 0
4273900000  0.431732128 -0.676037376 -0.007885187  0.075549976 0 0 0 0
4308850000  0.333263680 -0.419453408  0.005867780  0.062748136 0 0 0 0
4343800000  0.247549792 -0.208633568  0.005086256  0.053268260 0 0 0 0
4378750000  0.143128448 -0.104907328  0.000170805  0.051735664 0 0 0 0
4413700000  0.075253552 -0.117276304 -0.002540057  0.057043132 0 0 0 0
4448650000  0.060816216 -0.227161280 -0.002014432  0.068955184 0 0 0 0
4483600000  0.122452552 -0.396111744  0.009708209  0.086780448 0 0 0 0
4518550000  0.244102096 -0.557049664  0.040064300  0.099334384 0 0 0 0
4553500000  0.392959296 -0.619512832  0.081234216  0.083134024 0 0 0 0
4588450000  0.559538240 -0.551316224  0.099960640  0.041271468 0 0 0 0
4623400000  0.688989696 -0.405084000  0.089321192  0.006831624 0 0 0 0
4658350000  0.744284544 -0.234806848  0.071116696 -0.007686168 0 0 0 0
4693300000  0.726744640 -0.085333848  0.058531244 -0.011858173 0 0 0 0
4728250000  0.674139904  0.007992867  0.051360520 -0.012994492 0 0 0 0
4763200000  0.644208704  0.016599827  0.046665444 -0.014997460 0 0 0 0
4798150000  0.661088320 -0.114814472  0.044734568 -0.017064556 0 0 0 0
4833100000  0.714704384 -0.311402912  0.043326352 -0.021638252 0 0 0 0
4868050000  0.760570432 -0.540731520  0.036202344 -0.028951854 0 0 0 0
4903000000  0.774671680 -0.658467904  0.025497354 -0.029104732 0 0 0 0
4937950000  0.823255936 -0.634081664  0.018938486 -0.024508252 0 0 0 0
4972900000  0.851019648 -0.539613312  0.016606184 -0.021066404 0 0 0 0
5007850000  0.891642432 -0.401931360  0.016201139 -0.019626706 0 0 0 0
5042800000  0.879674816 -0.289840640  0.016261781 -0.020113186 0 0 0 0
5077750000  0.863852480 -0.218914960  0.017212806 -0.020613726 0 0 0 0
5112700000  0.842606208 -0.269331232  0.019273910 -0.022048904 0 0 0 0
5147650000  0.810622400 -0.381510592  0.020627278 -0.026876984 0 0 0 0
5182600000  0.776722688 -0.514946752  0.016115476 -0.030308122 0 0 0 0
5217550000  0.741027712 -0.616071424  0.009682387 -0.028304428 0 0 0 0
5252500000  0.758412032 -0.633896512  0.008192173 -0.024982098 0 0 0 0
5287450000  0.815866944 -0.594124480  0.007922621 -0.023401534 0 0 0 0
5322400000  0.853129600 -0.517932896  0.007302189 -0.024812742 0 0 0 0
5357350000  0.861409664 -0.403513984  0.005699518 -0.028360980 0 0 0 0
5392300000  0.874321600 -0.296460896  0.003509518 -0.033968924 0 0 0 0
5427250000  0.836471296 -0.311145824 -0.002105554 -0.041125108 0 0 0 0
5462200000  0.784498560 -0.361085312 -0.011569679 -0.046878756 0 0 0 0
5497150000  0.706555392 -0.447748800 -0.025361774 -0.044897040 0 0 0 0
5532100000  0.672609856 -0.480063296 -0.032551040 -0.039568628 0 0 0 0
5567050000  0.673479168 -0.494158944 -0.037766888 -0.031939344 0 0 0 0
5602000000  0.729747904 -0.443324128 -0.041214088 -0.024065840 0 0 0 0
5636950000  0.795963328 -0.364267616 -0.043408680 -0.013936348 0 0 0 0
5671900000  0.828990976 -0.285229760 -0.042901780 -0.002797768 0 0 0 0
5706850000  0.884886656 -0.160002096 -0.040574936  0.004014798 0 0 0 0
5741800000  0.897532480 -0.108121192 -0.036827428  0.012139695 0 0 0 0
5776750000  0.902100992 -0.122438456 -0.031748516  0.017294196 0 0 0 0
5811700000  0.900349824 -0.176900864 -0.023737264  0.019942768 0 0 0 0
5846650000  0.879496384 -0.274689920 -0.016821216  0.018484006 0 0 0 0
5881600000  0.894869184 -0.356933280 -0.012864823  0.015899735 0 0 0 0
5916550000  0.914031232 -0.396134880 -0.011242043  0.013664609 0 0 0 0
5951500000  0.936624256 -0.394442656 -0.011075626  0.013327450 0 0 0 0
5986450000  0.949475136 -0.306776032 -0.011202406  0.013648076 0 0 0 0
6021400000  0.987616832 -0.209906160 -0.011836408  0.014681108 0 0 0 0
6056350000  0.987637888 -0.149308400 -0.011404705  0.016484686 0 0 0 0
6091300000  0.976068096 -0.127358032 -0.009429445  0.017304176 0 0 0 0
6126250000  0.954036544 -0.161900944 -0.006615476  0.016314293 0 0 0 0
6161200000  0.936996480 -0.227946240 -0.004683665  0.013312962 0 0 0 0
6196150000  0.921827456 -0.321722336 -0.003390774  0.011147382 0 0 0 0
6231100000  0.938607040 -0.358180256 -0.003166409  0.010458157 0 0 0 0
6266050000  0.955244416 -0.380045472 -0.002908029  0.011439668 0 0 0 0
6301000000  0.968177472 -0.303594752 -0.002612225  0.013748304 0 0 0 0
6335950000  1.015592099 -0.215332544 -0.002314788  0.015354461 0 0 0 0
6370900000  1.004141092 -0.150657824 -0.002042314  0.018987714 0 0 0 0
6405850000  0.971769472 -0.116037688  0.004415330  0.020348950 0 0 0 0
6440800000  0.940405504 -0.153426176  0.009864043  0.019391704 0 0 0 0
6475750000  0.924769600 -0.176200080  0.010108918  0.016885902 0 0 0 0
6510700000  0.902503104 -0.225304656  0.009126847  0.016061986 0 0 0 0
6545650000  0.887784704 -0.297310112  0.010760925  0.017412180 0 0 0 0
6580600000  0.885260160 -0.313110656  0.013205740  0.020912840 0 0 0 0
6615550000  0.897149312 -0.244225200  0.017601608  0.020686626 0 0 0 0
6650500000  0.903983104 -0.175838720  0.025369856  0.017687360 0 0 0 0
6685450000  0.902173056 -0.061885080  0.031195480  0.009738620 0 0 0 0
6720400000  0.895777088  0.045534096  0.028617992 -0.003999908 0 0 0 0
6755350000  0.919390208  0.069083440  0.023499800 -0.013772399 0 0 0 0
6790300000  0.893780992  0.019762436  0.016969682 -0.012034324 0 0 0 0
6825250000  0.896793280  0.022011490  0.011589743 -0.011244021 0 0 0 0
6860200000  0.933839872 -0.055541044  0.010430950 -0.009209725 0 0 0 0
6895150000  0.932842176 -0.080362072  0.010636770 -0.006794137 0 0 0 0
6930100000  0.969696640 -0.092745416  0.008604942 -0.011921553 0 0 0 0
6965050000  1.007887006 -0.070639280  0.008706331 -0.013427564 0 0 0 0
7000000000  1.009710789 -0.006061975  0.007100295 -0.012044638 0 0 0 0
