!File created by NanoVNA
# Hz S RI R 50
  10000000  0.016825704 -0.015132151
  44950000  0.002195546 -0.076814784
  79900000 -0.035688004 -0.123816584
 114850000 -0.085261968 -0.146258288
 149800000 -0.124835040 -0.151190240
 184750000 -0.153826256 -0.147034160
 219700000 -0.177629264 -0.138446096
 254650000 -0.200131856 -0.121567976
 289600000 -0.218361184 -0.091723480
 324550000 -0.221494784 -0.047603376
 359500000 -0.201789024  0.000286845
 394450000 -0.155886944  0.037498276
 429400000 -0.088697296  0.052939540
 464350000 -0.012908130  0.042124320
 499300000  0.060430952  0.008660081
 534250000  0.125505016 -0.042259860
 569200000  0.178370960 -0.106522424
 604150000  0.215430592 -0.182941488
 639100000  0.231640448 -0.270068736
 674050000  0.222112592 -0.364528448
 709000000  0.188306464 -0.453330816
 743950000  0.135010496 -0.532559744
 778900000  0.075685848 -0.592205696
 813850000  0.012483599 -0.632652928
 848800000 -0.047691560 -0.655134144
 883750000 -0.106194864 -0.662488448
 918700000 -0.169596528 -0.654900352
 953650000 -0.228367536 -0.636813120
 988600000 -0.286444576 -0.611310400
1023550000 -0.338350624 -0.579180928
1058500000 -0.381173376 -0.541201024
1093450000 -0.412583776 -0.493670784
1128400000 -0.426231200 -0.431135264
1163350000 -0.420155968 -0.354095136
1198300000 -0.387319872 -0.266764544
1233250000 -0.324905856 -0.185433888
1268200000 -0.243161856 -0.124002080
1303150000 -0.148009040 -0.092402576
1338100000 -0.045776584 -0.092014296
1373050000  0.061935316 -0.128796104
1408000000  0.163382080 -0.207495904
1442950000  0.238536656 -0.318649024
1477900000  0.272190080 -0.436017920
1512850000  0.270391680 -0.535633984
1547800000  0.245420448 -0.610638976
1582750000  0.207240016 -0.661196480
1617700000  0.165771168 -0.701324416
1652650000  0.119015392 -0.734672064
1687600000  0.071233128 -0.768800064
1722550000  0.025218578 -0.795813696
1757500000 -0.015182392 -0.810305984
1792450000 -0.043338136 -0.823811136
1827400000 -0.068104152 -0.819630848
1862350000 -0.086067768 -0.807105024
1897300000 -0.113224632 -0.784198912
1932250000 -0.131338448 -0.755462784
1967200000 -0.167612656 -0.730494656
2002150000 -0.192992768 -0.705442304
2037100000 -0.225383040 -0.676685568
2072050000 -0.238204624 -0.636291456
2107000000 -0.216086880 -0.584859392
2141950000 -0.154804000 -0.537647936
2176900000 -0.064425796 -0.509440288
2211850000  0.018232452 -0.513430112
2246800000  0.062637440 -0.531032736
2281750000  0.084634408 -0.545377536
2316700000  0.095242464 -0.559484352
2351650000  0.103442544 -0.588585408
2386600000  0.111361672 -0.642150656
2421550000  0.115764944 -0.699968384
2456500000  0.120832824 -0.740411776
2491450000  0.117874280 -0.767763584
2526400000  0.129208472 -0.765013248
2561350000  0.137014208 -0.740151296
2596300000  0.137924688 -0.718285888
2631250000  0.117917568 -0.702372160
2666200000  0.099208912 -0.708881664
2701150000  0.064371320 -0.720137280
2736100000  0.066624068 -0.721494592
2771050000  0.111901832 -0.728888640
2806000000  0.181514336 -0.741124864
2840950000  0.255178448 -0.775971904
2875900000  0.293512288 -0.792429696
2910850000  0.303475200 -0.818277056
2945800000  0.239702832 -0.835426240
2980750000  0.168494880 -0.852952384
3015700000  0.091152896 -0.873617920
3050650000  0.039534760 -0.878034624
3085600000  0.007385653 -0.888254144
3120550000 -0.008473412 -0.823298816
3155500000  0.138597456 -0.720737920
3190450000  0.288571904 -0.758453952
3225400000  0.308880256 -0.811925696
3260350000  0.283960000 -0.830092096
3295300000  0.194044000 -0.840689280
3330250000  0.103569608 -0.831935040
3365200000  0.036444860 -0.826383680
3400150000  0.005535524 -0.821797824
3435100000  0.005579179 -0.831921728
3470050000  0.036193540 -0.798937088
3505000000  0.085464592 -0.765288128
3539950000  0.162242368 -0.694822848
3574900000  0.219968000 -0.596202880
3609850000  0.273573408 -0.516883904
3644800000  0.283441408 -0.514760192
3679750000  0.258209168 -0.560430016
3714700000  0.211121680 -0.641115648
3749650000  0.179398768 -0.721766976
3784600000  0.237761872 -0.785766976
3819550000  0.351855776 -0.815006848
3854500000  0.473368768 -0.820317056
3889450000  0.530070016 -0.800377152
3924400000  0.507334944 -0.785608576
3959350000  0.382205312 -0.756256192
3994300000  0.194869072 -0.679585856
4029250000  0.033194132 -0.637167040
4064200000 -0.047990280 -0.641240512
4099150000 -0.013834149 -0.672825984
4134100000  0.119815728 -0.749147456
4169050000  0.272406016 -0.817581056
4204000000  0.422322912 -0.853979712
4238950000  0.514418656 -0.833690688
4273900000  0.433377184 -0.675949376
4308850000  0.336316224 -0.420526624
4343800000  0.249623856 -0.209087456
4378750000  0.146644416 -0.105091032
4413700000  0.077745144 -0.117783464
4448650000  0.066326380 -0.225134944
4483600000  0.126989352 -0.392806560
4518550000  0.242883872 -0.559836416
4553500000  0.396339488 -0.616911680
4588450000  0.559262464 -0.551028032
4623400000  0.686837248 -0.407212256
4658350000  0.746942848 -0.230058992
4693300000  0.728397888 -0.083482160
4728250000  0.673678912  0.001138202
4763200000  0.645119168  0.015672725
4798150000  0.661449408 -0.107570760
4833100000  0.715007168 -0.309774656
4868050000  0.763578304 -0.536407104
4903000000  0.784540736 -0.649104320
4937950000  0.825914752 -0.632820672
4972900000  0.849091904 -0.541996736
5007850000  0.893619712 -0.401635040
5042800000  0.872801152 -0.306669248
5077750000  0.862484288 -0.229460784
5112700000  0.841642944 -0.268740640
5147650000  0.810693056 -0.379713600
5182600000  0.775499840 -0.516627840
5217550000  0.741725632 -0.615194624
5252500000  0.769399424 -0.625994560
5287450000  0.825927232 -0.581825664
5322400000  0.870141312 -0.496901312
5357350000  0.854902336 -0.411885696
5392300000  0.873347776 -0.314895104
5427250000  0.837519936 -0.304567040
5462200000  0.786257088 -0.361772928
5497150000  0.712503168 -0.441265984
5532100000  0.664741312 -0.483473728
5567050000  0.667286656 -0.499500704
5602000000  0.719379328 -0.454788928
5636950000  0.795520320 -0.363765344
5671900000  0.832530560 -0.264228160
5706850000  0.884681664 -0.158953008
5741800000  0.901038528 -0.116695080
5776750000  0.904897728 -0.130168480
5811700000  0.900212736 -0.176566448
5846650000  0.882897280 -0.269865056
5881600000  0.887369536 -0.363991200
5916550000  0.920046464 -0.384577920
5951500000  0.937805824 -0.387358912
5986450000  0.948853696 -0.305044864
6021400000  0.985929280 -0.207762704
6056350000  0.986269504 -0.143022704
6091300000  0.975371776 -0.122334264
6126250000  0.956937152 -0.154727632
6161200000  0.943392576 -0.219465040
6196150000  0.923658240 -0.314478368
6231100000  0.937988992 -0.347372512
6266050000  0.954434688 -0.380915360
6301000000  0.969803840 -0.306736608
6335950000  1.018203498 -0.208182384
6370900000  0.990128192 -0.146569488
6405850000  0.976709120 -0.120297568
6440800000  0.948575040 -0.120270368
6475750000  0.930132160 -0.177896800
6510700000  0.908316736 -0.252670672
6545650000  0.901786560 -0.319485536
6580600000  0.880114368 -0.290912960
6615550000  0.893909184 -0.254026736
6650500000  0.907399360 -0.166067200
6685450000  0.897187072 -0.066137872
6720400000  0.871695552 -0.038781836
6755350000  0.885112768  0.068396544
6790300000  0.909913152  0.033198592
6825250000  0.926349504  0.033617844
6860200000  0.920392512 -0.058690428
6895150000  0.913274304 -0.048864940
6930100000  0.968731520 -0.094696824
6965050000  0.995352704 -0.060449624
7000000000  1.022609234  0.000717798
