!File created by NanoVNA
# Hz S RI R 50
  10000000  0.019419786 -0.013011463  0.975276544 -0.049859120 0 0 0 0
  44950000  0.006673312 -0.067073108  0.941523520 -0.213331632 0 0 0 0
  79900000 -0.027245854 -0.107663624  0.883596992 -0.357434656 0 0 0 0
 114850000 -0.070925856 -0.125694064  0.809670400 -0.484128704 0 0 0 0
 149800000 -0.104045008 -0.127855256  0.723299520 -0.606376512 0 0 0 0
 184750000 -0.126621800 -0.122538624  0.610943424 -0.715298816 0 0 0 0
 219700000 -0.143964240 -0.114051760  0.475211328 -0.796667008 0 0 0 0
 254650000 -0.160819680 -0.098977480  0.333277248 -0.842540160 0 0 0 0
 289600000 -0.173882480 -0.071742264  0.206250944 -0.867016576 0 0 0 0
 324550000 -0.172679040 -0.031483510  0.079544464 -0.884875264 0 0 0 0
 359500000 -0.148634656  0.010840728 -0.058531288 -0.888640384 0 0 0 0
 394450000 -0.099180536  0.041394732 -0.198672144 -0.863704064 0 0 0 0
 429400000 -0.030609030  0.048675948 -0.330621440 -0.815461248 0 0 0 0
 464350000  0.043278356  0.029353828 -0.454460704 -0.747100416 0 0 0 0
 499300000  0.112406760 -0.011702023 -0.568881472 -0.654567424 0 0 0 0
 534250000  0.170792448 -0.067328288 -0.658816896 -0.537769280 0 0 0 0
 569200000  0.215903056 -0.133932472 -0.718207104 -0.407548032 0 0 0 0
 604150000  0.244981264 -0.209697088 -0.748003968 -0.283212800 0 0 0 0
 639100000  0.254735744 -0.294137568 -0.763846272 -0.167104304 0 0 0 0
 674050000  0.240772464 -0.383924352 -0.767153472 -0.043804612 0 0 0 0
 709000000  0.203367296 -0.468800288 -0.738879872  0.084769576 0 0 0 0
 743950000  0.149849712 -0.543067840 -0.674031168  0.191946944 0 0 0 0
 778900000  0.090831480 -0.599247040 -0.600778304  0.257829968 0 0 0 0
 813850000  0.029251364 -0.636987968 -0.546402432  0.295733152 0 0 0 0
 848800000 -0.029848726 -0.657714368 -0.514426944  0.335702240 0 0 0 0
 883750000 -0.087736720 -0.662453120 -0.487605504  0.394299712 0 0 0 0
 918700000 -0.149819120 -0.654447040 -0.434793600  0.473924096 0 0 0 0
 953650000 -0.207432576 -0.635530688 -0.352135296  0.533899424 0 0 0 0
 988600000 -0.266387488 -0.609180608 -0.260364896  0.559968960 0 0 0 0
1023550000 -0.317117664 -0.575730560 -0.186005152  0.562232000 0 0 0 0
1058500000 -0.359675296 -0.536301728 -0.139092736  0.564364864 0 0 0 0
1093450000 -0.388837792 -0.486992576 -0.098097872  0.589996032 0 0 0 0
1128400000 -0.400539456 -0.421996576 -0.032853228  0.636643264 0 0 0 0
1163350000 -0.389364288 -0.343587328  0.070360792  0.675736640 0 0 0 0
1198300000 -0.350979104 -0.254101760  0.198850640  0.674111040 0 0 0 0
1233250000 -0.281049536 -0.177248720  0.313806400  0.645040192 0 0 0 0
1268200000 -0.193831200 -0.123262360  0.433027392  0.589563328 0 0 0 0
1303150000 -0.096832792 -0.101316840  0.544554560  0.501514784 0 0 0 0
1338100000  0.003007126 -0.110932336  0.629005952  0.378836864 0 0 0 0
1373050000  0.104110888 -0.155866064  0.671066816  0.235818096 0 0 0 0
1408000000  0.195856448 -0.239053904  0.667967488  0.105093568 0 0 0 0
1442950000  0.259503312 -0.350526208  0.639860864 -0.008627330 0 0 0 0
1477900000  0.283949568 -0.462295296  0.598213632 -0.104878280 0 0 0 0
1512850000  0.279800128 -0.554968384  0.547192704 -0.180689680 0 0 0 0
1547800000  0.255758608 -0.622976384  0.491615392 -0.239213792 0 0 0 0
1582750000  0.217963344 -0.668568640  0.433841440 -0.288457088 0 0 0 0
1617700000  0.177660048 -0.706283904  0.376522848 -0.324279552 0 0 0 0
1652650000  0.132454936 -0.737047616  0.321144512 -0.351545888 0 0 0 0
1687600000  0.086428624 -0.768223360  0.265171344 -0.372276768 0 0 0 0
1722550000  0.040820124 -0.796475584  0.211302368 -0.382232352 0 0 0 0
1757500000  0.000884325 -0.810866368  0.168549520 -0.380931840 0 0 0 0
1792450000 -0.026353696 -0.823348992  0.138560528 -0.382393248 0 0 0 0
1827400000 -0.049130900 -0.819676288  0.116015608 -0.394532800 0 0 0 0
1862350000 -0.065434388 -0.804809024  0.091503504 -0.419962528 0 0 0 0
1897300000 -0.086813928 -0.781646272  0.043545344 -0.451780000 0 0 0 0
1932250000 -0.104726448 -0.752504704 -0.019065198 -0.476744992 0 0 0 0
1967200000 -0.137367552 -0.731276672 -0.101400200 -0.476445856 0 0 0 0
2002150000 -0.163342096 -0.709168896 -0.169215408 -0.462450080 0 0 0 0
2037100000 -0.190991712 -0.683790592 -0.225443808 -0.445167840 0 0 0 0
2072050000 -0.199362848 -0.647362560 -0.288047264 -0.433021696 0 0 0 0
2107000000 -0.174655632 -0.600569216 -0.373803712 -0.408654080 0 0 0 0
2141950000 -0.107515608 -0.564813696 -0.469072960 -0.352511968 0 0 0 0
2176900000 -0.022714538 -0.549451328 -0.550871104 -0.252669776 0 0 0 0
2211850000  0.042126764 -0.562727872 -0.591115008 -0.130799592 0 0 0 0
2246800000  0.074859064 -0.580718400 -0.592819328 -0.008753304 0 0 0 0
2281750000  0.084121224 -0.590992256 -0.562392192  0.097727320 0 0 0 0
2316700000  0.079865536 -0.602049664 -0.516856000  0.188702560 0 0 0 0
2351650000  0.084879320 -0.622366528 -0.468648960  0.257387408 0 0 0 0
2386600000  0.084292512 -0.667113984 -0.413503808  0.322668544 0 0 0 0
2421550000  0.089157288 -0.715810240 -0.349535200  0.380743968 0 0 0 0
2456500000  0.092090376 -0.749064640 -0.263151312  0.425647744 0 0 0 0
2491450000  0.099503184 -0.767333504 -0.182417280  0.436732448 0 0 0 0
2526400000  0.112493064 -0.755794048 -0.118532296  0.434820288 0 0 0 0
2561350000  0.127185080 -0.721721536 -0.068053536  0.442593024 0 0 0 0
2596300000  0.125795632 -0.685526720 -0.006197319  0.458688032 0 0 0 0
2631250000  0.128073544 -0.677524416  0.069524096  0.466857024 0 0 0 0
2666200000  0.102755080 -0.684870720  0.166494656  0.450311072 0 0 0 0
2701150000  0.084157592 -0.697399040  0.270517408  0.420711968 0 0 0 0
2736100000  0.096385144 -0.710351552  0.381236736  0.323287424 0 0 0 0
2771050000  0.146131776 -0.732141824  0.421844736  0.160981008 0 0 0 0
2806000000  0.214412496 -0.764135680  0.362440992  0.044687556 0 0 0 0
2840950000  0.267116816 -0.806118336  0.280841952 -0.012716888 0 0 0 0
2875900000  0.289668480 -0.821661632  0.225772992 -0.021893942 0 0 0 0
2910850000  0.287904320 -0.843588480  0.197158672 -0.019450832 0 0 0 0
2945800000  0.223392672 -0.869186048  0.180602912 -0.028484038 0 0 0 0
2980750000  0.127403256 -0.869727296  0.156555376 -0.039065648 0 0 0 0
3015700000  0.023312604 -0.867649600  0.116298328 -0.021447828 0 0 0 0
3050650000 -0.038640456 -0.821315136  0.110578752  0.043297472 0 0 0 0
3085600000 -0.018589586 -0.744024000  0.210214816  0.060191388 0 0 0 0
3120550000  0.133085576 -0.738019584  0.256807056 -0.048660464 0 0 0 0
3155500000  0.239678800 -0.803733824  0.207195904 -0.098003536 0 0 0 0
3190450000  0.298958912 -0.825820608  0.186003952 -0.103644704 0 0 0 0
3225400000  0.285252480 -0.846905664  0.185487376 -0.123460856 0 0 0 0
3260350000  0.263859216 -0.845257408  0.194435952 -0.158803696 0 0 0 0
3295300000  0.164933296 -0.843027456  0.173269696 -0.226140896 0 0 0 0
3330250000  0.071316808 -0.821661888  0.105275680 -0.273954720 0 0 0 0
3365200000 -0.004054149 -0.809084672  0.023886664 -0.262714592 0 0 0 0
3400150000 -0.033703588 -0.799787520 -0.012842808 -0.225719712 0 0 0 0
3435100000 -0.032218762 -0.803751616 -0.023644586 -0.204708400 0 0 0 0
3470050000  0.012319049 -0.764716992 -0.029192032 -0.210857344 0 0 0 0
3505000000  0.074756168 -0.722132800 -0.057055172 -0.237905328 0 0 0 0
3539950000  0.186507888 -0.645100800 -0.127772112 -0.252436496 0 0 0 0
3574900000  0.282999648 -0.554962176 -0.212841216 -0.221641504 0 0 0 0
3609850000  0.342192224 -0.500310528 -0.276070336 -0.141863408 0 0 0 0
3644800000  0.327746176 -0.526397216 -0.288815232 -0.027124134 0 0 0 0
3679750000  0.259771072 -0.581463168 -0.231980160  0.048971048 0 0 0 0
3714700000  0.176172240 -0.659891136 -0.154721264  0.079504136 0 0 0 0
3749650000  0.130240888 -0.732387456 -0.105724272  0.069776952 0 0 0 0
3784600000  0.184500672 -0.798783808 -0.085172456  0.052283600 0 0 0 0
3819550000  0.318684928 -0.831183360 -0.078621752  0.042449640 0 0 0 0
3854500000  0.464471296 -0.829928000 -0.078623640  0.038885220 0 0 0 0
3889450000  0.529364768 -0.811031296 -0.080105704  0.044261200 0 0 0 0
3924400000  0.514358176 -0.779663296 -0.078648008  0.058656636 0 0 0 0
3959350000  0.359598016 -0.726519808 -0.057971748  0.078337368 0 0 0 0
3994300000  0.140150544 -0.600738752 -0.027453882  0.074978528 0 0 0 0
4029250000 -0.032589182 -0.515058752 -0.016634180  0.057777976 0 0 0 0
4064200000 -0.118800704 -0.507224320 -0.015614708  0.045502080 0 0 0 0
4099150000 -0.094051648 -0.562974336 -0.019936028  0.038559320 0 0 0 0
4134100000  0.037138028 -0.666424064 -0.025184400  0.036216068 0 0 0 0
4169050000  0.210757536 -0.769005120 -0.030849930  0.038599896 0 0 0 0
4204000000  0.410357952 -0.829108352 -0.036051312  0.047577624 0 0 0 0
4238950000  0.522496032 -0.829514688 -0.028253018  0.065151124 0 0 0 0
4273900000  0.494022176 -0.633637056 -0.005582488  0.067708040 0 0 0 0
4308850000  0.475900224 -0.356708224  0.001947816  0.056187040 0 0 0 0
4343800000  0.426053312 -0.136482128 -0.000185096  0.050563436 0 0 0 0
4378750000  0.331338176 -0.019608632 -0.004159640  0.052288592 0 0 0 0
4413700000  0.249372624 -0.012411347 -0.005212313  0.061089764 0 0 0 0
4448650000  0.206961808 -0.113557400 -0.001114324  0.076145024 0 0 0 0
4483600000  0.221342512 -0.294043616  0.019206538  0.092690752 0 0 0 0
4518550000  0.290457600 -0.471283296  0.055994968  0.094504952 0 0 0 0
4553500000  0.425748000 -0.555462400  0.090004376  0.067866640 0 0 0 0
4588450000  0.586856576 -0.539927168  0.097664344  0.026301072 0 0 0 0
4623400000  0.724152000 -0.431175680  0.081240272 -0.002180997 0 0 0 0
4658350000  0.792109632 -0.285040960  0.063130140 -0.012006113 0 0 0 0
4693300000  0.799154112 -0.139922640  0.051801952 -0.014134597 0 0 0 0
4728250000  0.766043008 -0.039379068  0.045694992 -0.014182237 0 0 0 0
4763200000  0.743232640 -0.027728360  0.041271204 -0.015455966 0 0 0 0
4798150000  0.748213568 -0.139812272  0.039255212 -0.016653056 0 0 0 0
4833100000  0.769517184 -0.338732960  0.037293148 -0.019681328 0 0 0 0
4868050000  0.783087424 -0.542165248  0.031931066 -0.023222242 0 0 0 0
4903000000  0.779890560 -0.650499712  0.026783538 -0.023487182 0 0 0 0
4937950000  0.832818496 -0.625666752  0.020823126 -0.023363614 0 0 0 0
4972900000  0.856881408 -0.550951744  0.017589786 -0.021086380 0 0 0 0
5007850000  0.896419072 -0.434641216  0.016642012 -0.020219708 0 0 0 0
5042800000  0.897688000 -0.327516448  0.016530926 -0.021079944 0 0 0 0
5077750000  0.889619648 -0.244721376  0.017143766 -0.022060248 0 0 0 0
5112700000  0.868723136 -0.291032768  0.017844426 -0.024638434 0 0 0 0
5147650000  0.830261184 -0.394664544  0.016542502 -0.028103142 0 0 0 0
5182600000  0.787253248 -0.517206496  0.012636384 -0.028771834 0 0 0 0
5217550000  0.753286720 -0.603756928  0.008100525 -0.026452048 0 0 0 0
5252500000  0.767904192 -0.621167296  0.007284854 -0.023484818 0 0 0 0
5287450000  0.824095680 -0.584994432  0.006703111 -0.022639006 0 0 0 0
5322400000  0.854661440 -0.522706976  0.006472508 -0.024072548 0 0 0 0
5357350000  0.867737792 -0.398806816  0.004563096 -0.027730134 0 0 0 0
5392300000  0.879496704 -0.310107648  0.001426098 -0.033476610 0 0 0 0
5427250000  0.838022144 -0.324281760 -0.003986934 -0.040248752 0 0 0 0
5462200000  0.782882944 -0.362636128 -0.014703386 -0.044927820 0 0 0 0
5497150000  0.711497088 -0.425691936 -0.026741772 -0.042506612 0 0 0 0
5532100000  0.666786816 -0.458038720 -0.034376664 -0.035541632 0 0 0 0
5567050000  0.673567040 -0.464918976 -0.038531928 -0.027217032 0 0 0 0
5602000000  0.738891584 -0.416577920 -0.040447744 -0.018638250 0 0 0 0
5636950000  0.813158016 -0.340312800 -0.040568472 -0.009186618 0 0 0 0
5671900000  0.845853440 -0.278505120 -0.039023724  0.000389861 0 0 0 0
5706850000  0.900614400 -0.170226768 -0.036279868  0.006036614 0 0 0 0
5741800000  0.914677632 -0.116440984 -0.032871042  0.012753542 0 0 0 0
5776750000  0.914951040 -0.124595512 -0.027953832  0.017101538 0 0 0 0
5811700000  0.909578304 -0.170635760 -0.021180936  0.018862340 0 0 0 0
5846650000  0.886875264 -0.267278080 -0.014840828  0.017373390 0 0 0 0
5881600000  0.904426688 -0.339939200 -0.011533861  0.014510834 0 0 0 0
5916550000  0.937533952 -0.347061056 -0.010466551  0.012490267 0 0 0 0
5951500000  0.948146560 -0.367947776 -0.010287243  0.012447073 0 0 0 0
5986450000  0.954357952 -0.294891040 -0.010282917  0.012800457 0 0 0 0
6021400000  0.989795456 -0.193256768 -0.011126431  0.013764807 0 0 0 0
6056350000  0.990428480 -0.136357376 -0.010490461  0.015666036 0 0 0 0
6091300000  0.979921024 -0.104946064 -0.009363432  0.016222207 0 0 0 0
6126250000  0.962070528 -0.136994736 -0.006657017  0.015159783 0 0 0 0
6161200000  0.938928768 -0.217750768 -0.004481550  0.012579075 0 0 0 0
6196150000  0.926823168 -0.300704256 -0.003397839  0.010456286 0 0 0 0
6231100000  0.950038976 -0.307084064 -0.002974666  0.009848934 0 0 0 0
6266050000  0.963450240 -0.350062432 -0.002679856  0.010952193 0 0 0 0
6301000000  0.972919680 -0.278603712 -0.002572763  0.013197762 0 0 0 0
6335950000  1.028058410 -0.198688928 -0.002529096  0.017978340 0 0 0 0
6370900000  0.993712704 -0.153893504 -0.001848992  0.016738775 0 0 0 0
6405850000  0.991800960 -0.081319104  0.002278468  0.021456988 0 0 0 0
6440800000  0.935465088 -0.110298240  0.008063415  0.016652355 0 0 0 0
6475750000  0.926880128 -0.151654992  0.011635741  0.014909549 0 0 0 0
6510700000  0.907799040 -0.214605168  0.010164032  0.015894874 0 0 0 0
6545650000  0.910578240 -0.314723520  0.014923989  0.013920080 0 0 0 0
6580600000  0.869692480 -0.275493440  0.013792818  0.018209770 0 0 0 0
6615550000  0.915401792 -0.217100112  0.018684896  0.018906904 0 0 0 0
6650500000  0.911027264 -0.137154432  0.023687112  0.017749946 0 0 0 0
6685450000  0.907679936 -0.040060316  0.026904056  0.005416487 0 0 0 0
6720400000  0.845184192  0.029628142  0.028692804 -0.007333164 0 0 0 0
6755350000  0.910215040  0.067950208  0.022368364 -0.012693514 0 0 0 0
6790300000  0.908340672  0.011613045  0.016117149 -0.015117120 0 0 0 0
6825250000  0.913566208  0.051821872  0.008969590 -0.007944585 0 0 0 0
6860200000  0.913325952 -0.009651151  0.009537455 -0.008124795 0 0 0 0
6895150000  0.925714368 -0.028864794  0.008909459 -0.006410812 0 0 0 0
6930100000  0.966028736 -0.074147088  0.007356931 -0.007092566 0 0 0 0
6965050000  0.999116544 -0.057163228  0.010333852 -0.011974361 0 0 0 0
7000000000  0.994894400 -0.005098533  0.006458950 -0.015885052 0 0 0 0
