!File created by NanoVNA
# Hz S RI R 50
  10000000  0.019382578 -0.012986887
  44950000  0.006592809 -0.067153888
  79900000 -0.027216788 -0.107606456
 114850000 -0.070953200 -0.125746024
 149800000 -0.103990432 -0.127897248
 184750000 -0.126562504 -0.122496624
 219700000 -0.144007040 -0.114055600
 254650000 -0.160674432 -0.099067952
 289600000 -0.173730448 -0.071680744
 324550000 -0.172535440 -0.031562516
 359500000 -0.148744576  0.010925640
 394450000 -0.099185656  0.041379448
 429400000 -0.030716876  0.048439156
 464350000  0.043221660  0.029370110
 499300000  0.112328296 -0.011741192
 534250000  0.170655824 -0.067401832
 569200000  0.215863552 -0.133756560
 604150000  0.245295584 -0.209926912
 639100000  0.255017584 -0.294079040
 674050000  0.240697600 -0.384076096
 709000000  0.203549648 -0.468419136
 743950000  0.150268704 -0.543184128
 778900000  0.090972776 -0.599254272
 813850000  0.029174884 -0.637097024
 848800000 -0.030797452 -0.657544576
 883750000 -0.087308552 -0.662164800
 918700000 -0.149503696 -0.655151744
 953650000 -0.208321328 -0.635259072
 988600000 -0.266407136 -0.609113344
1023550000 -0.317089216 -0.576233216
1058500000 -0.360038848 -0.536532832
1093450000 -0.389860416 -0.486981984
1128400000 -0.400633184 -0.421622048
1163350000 -0.389592832 -0.343842720
1198300000 -0.350188736 -0.255208464
1233250000 -0.281628736 -0.177247232
1268200000 -0.194005248 -0.123367344
1303150000 -0.097164824 -0.101247272
1338100000  0.002693546 -0.110836352
1373050000  0.103989528 -0.155753792
1408000000  0.195598464 -0.239322944
1442950000  0.259197360 -0.350471264
1477900000  0.285341728 -0.461332768
1512850000  0.278696320 -0.555672704
1547800000  0.255313424 -0.623596416
1582750000  0.219552080 -0.667591936
1617700000  0.175693312 -0.707948736
1652650000  0.133057192 -0.736634304
1687600000  0.083241288 -0.767998016
1722550000  0.042173032 -0.796337728
1757500000  0.000509485 -0.811265472
1792450000 -0.025750216 -0.823379904
1827400000 -0.049343896 -0.818840256
1862350000 -0.063093724 -0.803307648
1897300000 -0.085766232 -0.781651584
1932250000 -0.104078960 -0.752523584
1967200000 -0.136693728 -0.731465024
2002150000 -0.163346672 -0.709046848
2037100000 -0.189695296 -0.682324800
2072050000 -0.202529408 -0.646977856
2107000000 -0.173561264 -0.603020160
2141950000 -0.106677520 -0.564983552
2176900000 -0.022927170 -0.549663936
2211850000  0.045370340 -0.563428352
2246800000  0.076366544 -0.580124544
2281750000  0.080597528 -0.590666432
2316700000  0.083732016 -0.600763136
2351650000  0.087427488 -0.622027264
2386600000  0.088124904 -0.665813440
2421550000  0.092541128 -0.714956864
2456500000  0.094077216 -0.748545088
2491450000  0.099089048 -0.766934464
2526400000  0.112608784 -0.755402304
2561350000  0.126494824 -0.720548160
2596300000  0.131325616 -0.693483264
2631250000  0.124826208 -0.676639680
2666200000  0.117116864 -0.692487232
2701150000  0.077471504 -0.701245312
2736100000  0.095431256 -0.711480128
2771050000  0.146421008 -0.735094208
2806000000  0.208340704 -0.769091200
2840950000  0.268705888 -0.806196480
2875900000  0.290431296 -0.822868096
2910850000  0.290078144 -0.844218816
2945800000  0.216839232 -0.865527488
2980750000  0.128198240 -0.868443904
3015700000  0.023224318 -0.867343040
3050650000 -0.037835512 -0.820876352
3085600000 -0.015045009 -0.741705152
3120550000  0.130319592 -0.739314496
3155500000  0.241338464 -0.805391232
3190450000  0.291566464 -0.829367552
3225400000  0.290401664 -0.846830400
3260350000  0.262478768 -0.845679744
3295300000  0.166698208 -0.841474048
3330250000  0.072524688 -0.822618176
3365200000 -0.007589800 -0.809967616
3400150000 -0.033326726 -0.801876416
3435100000 -0.025025870 -0.808108480
3470050000  0.018980828 -0.766298496
3505000000  0.082206680 -0.720438080
3539950000  0.188011008 -0.642917056
3574900000  0.285801312 -0.551507776
3609850000  0.343025248 -0.498754336
3644800000  0.326030496 -0.526597856
3679750000  0.256345808 -0.583427200
3714700000  0.168102528 -0.661488384
3749650000  0.128613848 -0.739268800
3784600000  0.185127168 -0.803068864
3819550000  0.324727328 -0.832319680
3854500000  0.456290048 -0.837012672
3889450000  0.539457728 -0.802744896
3924400000  0.518865120 -0.772606400
3959350000  0.359040864 -0.724871680
3994300000  0.133106608 -0.600936576
4029250000 -0.056888924 -0.506349792
4064200000 -0.132671264 -0.503029120
4099150000 -0.111845992 -0.559864192
4134100000  0.023078880 -0.666052352
4169050000  0.202655872 -0.766943552
4204000000  0.399539712 -0.834819136
4238950000  0.525939168 -0.827252160
4273900000  0.499277184 -0.624945792
4308850000  0.484240608 -0.342237376
4343800000  0.437818848 -0.117893320
4378750000  0.348359776  0.005341592
4413700000  0.260557568  0.012070394
4448650000  0.215307696 -0.089859968
4483600000  0.228792992 -0.275746176
4518550000  0.293293184 -0.462180640
4553500000  0.424085120 -0.554492288
4588450000  0.584776128 -0.541300864
4623400000  0.724306368 -0.435623904
4658350000  0.800928576 -0.283259360
4693300000  0.807723904 -0.138895952
4728250000  0.776162944 -0.035526100
4763200000  0.753933888 -0.003953722
4798150000  0.757125760 -0.136833616
4833100000  0.776581568 -0.334121376
4868050000  0.785473472 -0.543019520
4903000000  0.773693120 -0.655494464
4937950000  0.827481984 -0.631361024
4972900000  0.864044544 -0.543525184
5007850000  0.913000448 -0.416647168
5042800000  0.897990208 -0.341062304
5077750000  0.895697536 -0.245193680
5112700000  0.874140992 -0.297643040
5147650000  0.834871680 -0.397303584
5182600000  0.789385792 -0.517244512
5217550000  0.751985728 -0.605737536
5252500000  0.757684032 -0.627997632
5287450000  0.814348736 -0.591165056
5322400000  0.859486976 -0.514924000
5357350000  0.863501632 -0.410436704
5392300000  0.878103744 -0.320970400
5427250000  0.841392896 -0.323976128
5462200000  0.786709440 -0.363529792
5497150000  0.717060352 -0.421340608
5532100000  0.668789632 -0.456724480
5567050000  0.677614848 -0.463330144
5602000000  0.738073856 -0.416864768
5636950000  0.796842880 -0.373738304
5671900000  0.844587392 -0.269555136
5706850000  0.898718208 -0.152998288
5741800000  0.915507520 -0.113955600
5776750000  0.915535552 -0.120169856
5811700000  0.911816064 -0.169453536
5846650000  0.886977024 -0.267642864
5881600000  0.899051456 -0.343616576
5916550000  0.925679488 -0.372493760
5951500000  0.944023168 -0.384563008
5986450000  0.953083648 -0.296524704
6021400000  0.993159424 -0.202315744
6056350000  0.992268032 -0.140983920
6091300000  0.979092992 -0.116447472
6126250000  0.956976896 -0.148774000
6161200000  0.937615040 -0.217091792
6196150000  0.922550144 -0.310722048
6231100000  0.938552384 -0.350401632
6266050000  0.962331648 -0.357895232
6301000000  0.975131648 -0.285120544
6335950000  1.012728930 -0.196456320
6370900000  0.990240320 -0.141398240
6405850000  0.976438656 -0.079804232
6440800000  0.950063872 -0.114439608
6475750000  0.909508224 -0.165399424
6510700000  0.880102656 -0.247092112
6545650000  0.891143232 -0.303590048
6580600000  0.880307648 -0.284382304
6615550000  0.893559936 -0.220972512
6650500000  0.910550592 -0.137974032
6685450000  0.895745664 -0.048084996
6720400000  0.917126528  0.064061492
6755350000  0.895344576  0.075788608
6790300000  0.923774400  0.029944064
6825250000  0.905310784  0.064696760
6860200000  0.921707008 -0.013472798
6895150000  0.922453312 -0.038711744
6930100000  0.983994816 -0.071288576
6965050000  1.007435799 -0.042068764
7000000000  1.000853181  0.023984046
