!File created by NanoVNA
# Hz S RI R 50
  10000000  0.021958362 -0.010103096  0.973474176 -0.050036852 0 0 0 0
  44950000  0.012815219 -0.058859364  0.938272512 -0.213206656 0 0 0 0
  79900000 -0.016537488 -0.096201424  0.879226880 -0.356471744 0 0 0 0
 114850000 -0.054617608 -0.113520592  0.803587456 -0.481627904 0 0 0 0
 149800000 -0.082472440 -0.116310040  0.716723264 -0.600643968 0 0 0 0
 184750000 -0.100381560 -0.113355720  0.606687424 -0.705064448 0 0 0 0
 219700000 -0.113987672 -0.108082032  0.473617920 -0.785763904 0 0 0 0
 254650000 -0.127350136 -0.097349792  0.332935968 -0.831410560 0 0 0 0
 289600000 -0.137990304 -0.075375784  0.205769168 -0.853773568 0 0 0 0
 324550000 -0.136291616 -0.041891440  0.079518144 -0.867208704 0 0 0 0
 359500000 -0.113989488 -0.006492977 -0.054233892 -0.865431488 0 0 0 0
 394450000 -0.068830704  0.016754201 -0.185580768 -0.838380544 0 0 0 0
 429400000 -0.007335873  0.019073614 -0.309439296 -0.790881920 0 0 0 0
 464350000  0.057901696 -0.002078612 -0.425541216 -0.725615168 0 0 0 0
 499300000  0.118277736 -0.042418188 -0.531974688 -0.637095040 0 0 0 0
 534250000  0.169121488 -0.093893280 -0.614356480 -0.528456320 0 0 0 0
 569200000  0.208513632 -0.154061472 -0.669016896 -0.410342112 0 0 0 0
 604150000  0.234609088 -0.221331536 -0.698150016 -0.297344736 0 0 0 0
 639100000  0.244734368 -0.296325696 -0.716253888 -0.190826848 0 0 0 0
 674050000  0.233805136 -0.377429024 -0.723487232 -0.077163728 0 0 0 0
 709000000  0.204359360 -0.455527808 -0.702997248  0.042399040 0 0 0 0
 743950000  0.159799872 -0.526320704 -0.648492160  0.144529472 0 0 0 0
 778900000  0.109198080 -0.582364352 -0.582920064  0.209784912 0 0 0 0
 813850000  0.055942012 -0.622504064 -0.532528160  0.248164528 0 0 0 0
 848800000  0.002803910 -0.646786816 -0.501854656  0.285925856 0 0 0 0
 883750000 -0.046993824 -0.657323456 -0.478822176  0.339588096 0 0 0 0
 918700000 -0.101978440 -0.656869632 -0.436301664  0.411466944 0 0 0 0
 953650000 -0.155233248 -0.645339520 -0.361114016  0.473440768 0 0 0 0
 988600000 -0.211607136 -0.627661760 -0.275562464  0.502291616 0 0 0 0
1023550000 -0.259053296 -0.605851712 -0.205582160  0.503949120 0 0 0 0
1058500000 -0.300170944 -0.578271616 -0.160671904  0.501929760 0 0 0 0
1093450000 -0.330262944 -0.544760960 -0.126774520  0.517709088 0 0 0 0
1128400000 -0.346753376 -0.498200832 -0.077668664  0.554593536 0 0 0 0
1163350000 -0.347661824 -0.441123552 -0.002461514  0.591971456 0 0 0 0
1198300000 -0.331594528 -0.373979872  0.098014808  0.603932480 0 0 0 0
1233250000 -0.295148352 -0.307423744  0.194449888  0.590138560 0 0 0 0
1268200000 -0.246572576 -0.252490704  0.292871168  0.555529088 0 0 0 0
1303150000 -0.187223424 -0.215098304  0.384272352  0.501287040 0 0 0 0
1338100000 -0.121001704 -0.195354080  0.462051232  0.427176512 0 0 0 0
1373050000 -0.042947008 -0.198558240  0.523709664  0.334758624 0 0 0 0
1408000000  0.043682840 -0.230706016  0.560550080  0.232178128 0 0 0 0
1442950000  0.127724040 -0.293918848  0.571059200  0.133698240 0 0 0 0
1477900000  0.189364448 -0.375459680  0.563721536  0.036333860 0 0 0 0
1512850000  0.223565312 -0.457667552  0.540214592 -0.045170108 0 0 0 0
1547800000  0.227913248 -0.529516864  0.504340128 -0.120209680 0 0 0 0
1582750000  0.214246592 -0.582421952  0.459909856 -0.184117344 0 0 0 0
1617700000  0.188462816 -0.629869312  0.411157504 -0.233545328 0 0 0 0
1652650000  0.159000320 -0.668120896  0.359818432 -0.271918272 0 0 0 0
1687600000  0.123454576 -0.709035328  0.306266368 -0.301122944 0 0 0 0
1722550000  0.089042656 -0.746186368  0.253877760 -0.317571904 0 0 0 0
1757500000  0.057943764 -0.772566528  0.207463808 -0.322641120 0 0 0 0
1792450000  0.038484116 -0.795627008  0.176971088 -0.321437568 0 0 0 0
1827400000  0.021895656 -0.802974336  0.154701456 -0.328528768 0 0 0 0
1862350000  0.007283026 -0.801085504  0.133322176 -0.346166656 0 0 0 0
1897300000 -0.011312252 -0.793395520  0.098952064 -0.370536896 0 0 0 0
1932250000 -0.032232944 -0.777727552  0.053172620 -0.391699648 0 0 0 0
1967200000 -0.067751104 -0.769293760 -0.008933456 -0.397830752 0 0 0 0
2002150000 -0.098301200 -0.758654528 -0.060683024 -0.388454656 0 0 0 0
2037100000 -0.128120688 -0.752278080 -0.097609992 -0.375249312 0 0 0 0
2072050000 -0.146701360 -0.738365184 -0.133185608 -0.369446240 0 0 0 0
2107000000 -0.141121632 -0.715288640 -0.177312320 -0.369892256 0 0 0 0
2141950000 -0.116980824 -0.692441152 -0.240419568 -0.363288128 0 0 0 0
2176900000 -0.077467752 -0.663930496 -0.312744960 -0.335969280 0 0 0 0
2211850000 -0.033812720 -0.644023616 -0.379830816 -0.280060320 0 0 0 0
2246800000 -0.008676293 -0.628875008 -0.426638400 -0.203092784 0 0 0 0
2281750000  0.000870410 -0.621968064 -0.451249184 -0.125516352 0 0 0 0
2316700000  0.002483179 -0.614221504 -0.459462400 -0.049556416 0 0 0 0
2351650000  0.004068783 -0.611956864 -0.458711424  0.019745658 0 0 0 0
2386600000  0.021681698 -0.629204544 -0.448973440  0.102513000 0 0 0 0
2421550000  0.051083848 -0.666000384 -0.422292960  0.180047008 0 0 0 0
2456500000  0.083771328 -0.703574784 -0.365052064  0.252809680 0 0 0 0
2491450000  0.109246280 -0.736941248 -0.294623904  0.292545376 0 0 0 0
2526400000  0.129150760 -0.746255936 -0.233297168  0.306141280 0 0 0 0
2561350000  0.138686704 -0.732168640 -0.199663088  0.310064832 0 0 0 0
2596300000  0.127410472 -0.714414272 -0.169656960  0.330531520 0 0 0 0
2631250000  0.111226952 -0.694444672 -0.126197968  0.360593024 0 0 0 0
2666200000  0.105907656 -0.704236736 -0.061399900  0.393919104 0 0 0 0
2701150000  0.060559464 -0.717238848  0.024473806  0.411649152 0 0 0 0
2736100000  0.059525936 -0.726305152  0.126383368  0.389736704 0 0 0 0
2771050000  0.086934544 -0.732435776  0.214891904  0.313200032 0 0 0 0
2806000000  0.152213280 -0.733741888  0.243222560  0.223663504 0 0 0 0
2840950000  0.229814560 -0.747278016  0.235338448  0.148391568 0 0 0 0
2875900000  0.270048608 -0.759685632  0.214443312  0.097734072 0 0 0 0
2910850000  0.302830048 -0.781222336  0.192822352  0.065506756 0 0 0 0
2945800000  0.260129040 -0.817723840  0.172867216  0.038727504 0 0 0 0
2980750000  0.181022288 -0.833192704  0.142935728  0.017063770 0 0 0 0
3015700000  0.092323792 -0.855022912  0.093868152  0.023788738 0 0 0 0
3050650000  0.036378400 -0.841887424  0.071849224  0.077876736 0 0 0 0
3085600000  0.022550624 -0.817980736  0.127857600  0.116442592 0 0 0 0
3120550000  0.080620160 -0.775095040  0.196991536  0.090714576 0 0 0 0
3155500000  0.202883280 -0.775150656  0.217651008  0.033479584 0 0 0 0
3190450000  0.288975392 -0.785480192  0.210759904 -0.004876165 0 0 0 0
3225400000  0.316417344 -0.805557504  0.209116944 -0.033480962 0 0 0 0
3260350000  0.301922688 -0.816759744  0.216048832 -0.064332800 0 0 0 0
3295300000  0.233804384 -0.821510400  0.212663120 -0.119601744 0 0 0 0
3330250000  0.150152496 -0.818648832  0.168842672 -0.175942016 0 0 0 0
3365200000  0.091405016 -0.819639040  0.100105928 -0.186257440 0 0 0 0
3400150000  0.063338860 -0.824480000  0.056300776 -0.160755264 0 0 0 0
3435100000  0.071655744 -0.854992192  0.051555092 -0.132624584 0 0 0 0
3470050000  0.120210248 -0.846964608  0.054614756 -0.122019304 0 0 0 0
3505000000  0.173796400 -0.855204224  0.062530524 -0.128898648 0 0 0 0
3539950000  0.235955392 -0.848444416  0.063334964 -0.153121056 0 0 0 0
3574900000  0.234383152 -0.803669184  0.045044384 -0.190872592 0 0 0 0
3609850000  0.188961680 -0.726960576 -0.005463610 -0.222624672 0 0 0 0
3644800000  0.102626864 -0.655631488 -0.079612632 -0.212923616 0 0 0 0
3679750000  0.044845196 -0.596930176 -0.128545672 -0.163941104 0 0 0 0
3714700000  0.011931389 -0.585838784 -0.142620896 -0.108666320 0 0 0 0
3749650000  0.037864172 -0.617090112 -0.135929312 -0.071060128 0 0 0 0
3784600000  0.135026336 -0.674894720 -0.125981856 -0.048937060 0 0 0 0
3819550000  0.279639744 -0.711799552 -0.119483336 -0.035508884 0 0 0 0
3854500000  0.426741248 -0.725572736 -0.118002816 -0.025501522 0 0 0 0
3889450000  0.509248128 -0.706491008 -0.119869168 -0.010255767 0 0 0 0
3924400000  0.517184032 -0.690653440 -0.120869392  0.011923904 0 0 0 0
3959350000  0.420837600 -0.659576832 -0.106525528  0.045453948 0 0 0 0
3994300000  0.255306960 -0.591856512 -0.073170632  0.061067052 0 0 0 0
4029250000  0.103680680 -0.555921792 -0.048056096  0.052568484 0 0 0 0
4064200000  0.019465020 -0.564232128 -0.036785144  0.041008172 0 0 0 0
4099150000  0.024099310 -0.604437952 -0.034506184  0.032351018 0 0 0 0
4134100000  0.141188224 -0.685561856 -0.035779876  0.027481574 0 0 0 0
4169050000  0.306431264 -0.757243840 -0.038305244  0.026862620 0 0 0 0
4204000000  0.464806816 -0.803016832 -0.042051260  0.030074066 0 0 0 0
4238950000  0.574271808 -0.799230720 -0.040091044  0.041820600 0 0 0 0
4273900000  0.518288800 -0.673758016 -0.024824080  0.050340896 0 0 0 0
4308850000  0.439884064 -0.445776672 -0.012990267  0.043009844 0 0 0 0
4343800000  0.355108736 -0.246207568 -0.010288378  0.034541688 0 0 0 0
4378750000  0.262315456 -0.137593856 -0.012516999  0.030003836 0 0 0 0
4413700000  0.199199136 -0.137023328 -0.015395957  0.029105772 0 0 0 0
4448650000  0.200517408 -0.229559520 -0.018879218  0.030965260 0 0 0 0
4483600000  0.290178464 -0.399472768 -0.022260072  0.036377808 0 0 0 0
4518550000  0.429574464 -0.625882816 -0.021187624  0.047504316 0 0 0 0
4553500000  0.526645600 -0.779698432 -0.009488961  0.058335596 0 0 0 0
4588450000  0.587187200 -0.741475776  0.005672477  0.056383408 0 0 0 0
4623400000  0.654310080 -0.570086656  0.012301896  0.049493480 0 0 0 0
4658350000  0.687244160 -0.376404992  0.014407435  0.046349464 0 0 0 0
4693300000  0.657147456 -0.219919088  0.017829162  0.046669080 0 0 0 0
4728250000  0.594984576 -0.117426480  0.024600178  0.047431448 0 0 0 0
4763200000  0.548515136 -0.094140120  0.034607408  0.045227680 0 0 0 0
4798150000  0.533827616 -0.192812608  0.045658780  0.039099940 0 0 0 0
4833100000  0.570977728 -0.328189728  0.054648016  0.028960336 0 0 0 0
4868050000  0.642955584 -0.490756704  0.056790268  0.012902198 0 0 0 0
4903000000  0.705026880 -0.585274368  0.049441340  0.001709333 0 0 0 0
4937950000  0.774155200 -0.572381824  0.043169392 -0.004831631 0 0 0 0
4972900000  0.819573888 -0.483347840  0.036230244 -0.008380707 0 0 0 0
5007850000  0.858891328 -0.360386432  0.031547022 -0.010295068 0 0 0 0
5042800000  0.852088960 -0.249949568  0.029196126 -0.011813022 0 0 0 0
5077750000  0.835384576 -0.189324880  0.027652196 -0.013435419 0 0 0 0
5112700000  0.821792192 -0.225963312  0.027441432 -0.015778564 0 0 0 0
5147650000  0.802677248 -0.323700160  0.026505818 -0.018480486 0 0 0 0
5182600000  0.785848640 -0.462890592  0.022084206 -0.020726222 0 0 0 0
5217550000  0.763517696 -0.569311872  0.016513343 -0.019309468 0 0 0 0
5252500000  0.791617280 -0.588774016  0.014138226 -0.015678116 0 0 0 0
5287450000  0.846839808 -0.547009088  0.012571934 -0.013484545 0 0 0 0
5322400000  0.886149760 -0.470849088  0.011805392 -0.012651682 0 0 0 0
5357350000  0.888022528 -0.365728128  0.010812844 -0.013436669 0 0 0 0
5392300000  0.905393408 -0.265217728  0.009742613 -0.015581676 0 0 0 0
5427250000  0.888552000 -0.271049632  0.008678080 -0.018785302 0 0 0 0
5462200000  0.866207232 -0.316186752  0.006627104 -0.022174716 0 0 0 0
5497150000  0.830561536 -0.416210208  0.003145716 -0.023807046 0 0 0 0
5532100000  0.796228288 -0.502653312  0.001087971 -0.022992554 0 0 0 0
5567050000  0.795226176 -0.563815296  0.001182975 -0.021644954 0 0 0 0
5602000000  0.834926336 -0.547985600  0.002310298 -0.021162414 0 0 0 0
5636950000  0.880720256 -0.483211840  0.002377233 -0.021666966 0 0 0 0
5671900000  0.859494656 -0.417700128  0.000910487 -0.022793630 0 0 0 0
5706850000  0.897160896 -0.316854784 -0.002115071 -0.025094412 0 0 0 0
5741800000  0.882510976 -0.250447088 -0.007235175 -0.027567008 0 0 0 0
5776750000  0.849719808 -0.262654032 -0.015275399 -0.027280068 0 0 0 0
5811700000  0.807570816 -0.301073408 -0.021544886 -0.023110374 0 0 0 0
5846650000  0.772184512 -0.343292736 -0.024216814 -0.017387216 0 0 0 0
5881600000  0.776796352 -0.396388384 -0.024046144 -0.013144794 0 0 0 0
5916550000  0.796478400 -0.413514432 -0.023608396 -0.009640100 0 0 0 0
5951500000  0.843807680 -0.377317984 -0.024018548 -0.006661157 0 0 0 0
5986450000  0.875694144 -0.275752864 -0.024281832 -0.002148231 0 0 0 0
6021400000  0.921993728 -0.174967312 -0.025081468  0.001115388 0 0 0 0
6056350000  0.930983040 -0.116348848 -0.025258892  0.006427073 0 0 0 0
6091300000  0.922543104 -0.086380400 -0.023048724  0.010142613 0 0 0 0
6126250000  0.912495872 -0.110733840 -0.018376918  0.011777992 0 0 0 0
6161200000  0.911256256 -0.168150272 -0.013892072  0.010271281 0 0 0 0
6196150000  0.909057152 -0.258004880 -0.010895661  0.008001591 0 0 0 0
6231100000  0.930751040 -0.307323200 -0.008917987  0.006785139 0 0 0 0
6266050000  0.953806784 -0.341575488 -0.007760311  0.006936516 0 0 0 0
6301000000  0.970728896 -0.262472816 -0.006860530  0.008312367 0 0 0 0
6335950000  1.015657783 -0.176740464 -0.008484317  0.011976093 0 0 0 0
6370900000  0.993802624 -0.118704584 -0.006137160  0.012806596 0 0 0 0
6405850000  0.988417216 -0.047865736 -0.001352681  0.011859615 0 0 0 0
6440800000  0.961705728 -0.073745984 -0.004138236  0.011964868 0 0 0 0
6475750000  0.953597696 -0.112278368  0.000590456  0.009841818 0 0 0 0
6510700000  0.958027776 -0.180779344  0.000377755  0.012738742 0 0 0 0
6545650000  0.935331520 -0.265419600  0.000365154  0.009111558 0 0 0 0
6580600000  0.973380544 -0.289283648 -0.002420622  0.011767054 0 0 0 0
6615550000  0.990201152 -0.239106944  0.000352566  0.011869049 0 0 0 0
6650500000  1.002714634 -0.172966400 -0.000874177  0.011832573 0 0 0 0
6685450000  1.000260711 -0.099728640 -0.000116932  0.013611103 0 0 0 0
6720400000  0.948892608 -0.066576504  0.003656415  0.010986373 0 0 0 0
6755350000  0.973155456 -0.035658256  0.005702286  0.011820276 0 0 0 0
6790300000  0.924503296 -0.036684652  0.007443394  0.007963872 0 0 0 0
6825250000  0.949408064 -0.062199628  0.008303019  0.011659065 0 0 0 0
6860200000  0.938281472 -0.145543808  0.007937978  0.010241000 0 0 0 0
6895150000  0.915638400 -0.155338784  0.006334663  0.011755338 0 0 0 0
6930100000  0.914397696 -0.158386560  0.008793158  0.013325102 0 0 0 0
6965050000  0.952843008 -0.133611320  0.011621026  0.011441445 0 0 0 0
7000000000  0.919210624 -0.086018176  0.017505922  0.003096853 0 0 0 0
