!File created by NanoVNA
# Hz S RI R 50
  10000000  0.021963680 -0.010153308
  44950000  0.012915645 -0.059044588
  79900000 -0.016505156 -0.096342424
 114850000 -0.054435512 -0.113495784
 149800000 -0.082389384 -0.116368168
 184750000 -0.100458472 -0.113349344
 219700000 -0.114108688 -0.108189888
 254650000 -0.127677336 -0.097145464
 289600000 -0.138467120 -0.075430608
 324550000 -0.136440784 -0.041756312
 359500000 -0.114092216 -0.006439120
 394450000 -0.068842232  0.016855686
 429400000 -0.007480161  0.019258500
 464350000  0.058017568 -0.001900996
 499300000  0.118532344 -0.041890128
 534250000  0.169215616 -0.093519936
 569200000  0.208737824 -0.153766784
 604150000  0.235135504 -0.221246048
 639100000  0.244925472 -0.296257760
 674050000  0.234615104 -0.377367904
 709000000  0.203619216 -0.456149504
 743950000  0.160536352 -0.526340192
 778900000  0.109228488 -0.582564800
 813850000  0.055904536 -0.622645760
 848800000  0.004385857 -0.647128064
 883750000 -0.047557588 -0.657385152
 918700000 -0.102383512 -0.656928000
 953650000 -0.154676832 -0.645372096
 988600000 -0.211187888 -0.628389504
1023550000 -0.258790400 -0.606103488
1058500000 -0.299306528 -0.579738048
1093450000 -0.330521856 -0.544966528
1128400000 -0.346463808 -0.498915392
1163350000 -0.347536928 -0.441547168
1198300000 -0.330916576 -0.374552800
1233250000 -0.295633952 -0.307718560
1268200000 -0.246913440 -0.252487632
1303150000 -0.187835856 -0.215148288
1338100000 -0.121701816 -0.195182112
1373050000 -0.043138092 -0.198565328
1408000000  0.044370508 -0.230576304
1442950000  0.127459824 -0.293618752
1477900000  0.190306064 -0.374897568
1512850000  0.222434448 -0.457877216
1547800000  0.227954752 -0.529525056
1582750000  0.216262256 -0.581334784
1617700000  0.189650496 -0.629295872
1652650000  0.157974688 -0.668636032
1687600000  0.125017928 -0.708954432
1722550000  0.090679672 -0.746615360
1757500000  0.057672272 -0.773390400
1792450000  0.040683060 -0.795878528
1827400000  0.021706858 -0.802113408
1862350000  0.005057726 -0.802095808
1897300000 -0.012900415 -0.793472704
1932250000 -0.029828876 -0.778170304
1967200000 -0.061927476 -0.771548416
2002150000 -0.095437424 -0.760665344
2037100000 -0.123190856 -0.754336320
2072050000 -0.143676848 -0.740408384
2107000000 -0.138404000 -0.716599616
2141950000 -0.116762992 -0.692828736
2176900000 -0.077446136 -0.664404224
2211850000 -0.034929576 -0.643651072
2246800000 -0.008279304 -0.631016640
2281750000  0.006622063 -0.623299392
2316700000  0.000256808 -0.615165888
2351650000  0.006152558 -0.613530432
2386600000  0.022390568 -0.629897472
2421550000  0.050272380 -0.666424256
2456500000  0.080263808 -0.704256192
2491450000  0.106970800 -0.736316352
2526400000  0.127865808 -0.745573312
2561350000  0.141703648 -0.729871680
2596300000  0.130467744 -0.713630528
2631250000  0.107520056 -0.696928960
2666200000  0.093610224 -0.701153664
2701150000  0.064440780 -0.714019392
2736100000  0.062053668 -0.726813312
2771050000  0.094089904 -0.732718528
2806000000  0.157504848 -0.736781568
2840950000  0.232917600 -0.752407744
2875900000  0.276603520 -0.768090304
2910850000  0.301820544 -0.789225536
2945800000  0.249288448 -0.817906240
2980750000  0.170857744 -0.842050752
3015700000  0.075896200 -0.853968640
3050650000  0.023665256 -0.827150592
3085600000  0.028238414 -0.797749632
3120550000  0.107089952 -0.772329664
3155500000  0.213921104 -0.782097280
3190450000  0.294333856 -0.792552512
3225400000  0.317607968 -0.809654272
3260350000  0.307444800 -0.816150656
3295300000  0.231316176 -0.825553216
3330250000  0.153756944 -0.821522624
3365200000  0.089270064 -0.824799680
3400150000  0.070880328 -0.832203456
3435100000  0.074696984 -0.860110656
3470050000  0.112379000 -0.849001216
3505000000  0.176942320 -0.853974336
3539950000  0.244604128 -0.843607104
3574900000  0.238018800 -0.798882752
3609850000  0.186488832 -0.729080704
3644800000  0.102276648 -0.660510592
3679750000  0.039307504 -0.600880064
3714700000  0.009788069 -0.594378496
3749650000  0.046662764 -0.626871808
3784600000  0.123749016 -0.684193856
3819550000  0.290545856 -0.714642368
3854500000  0.430860640 -0.724081280
3889450000  0.505196512 -0.714140992
3924400000  0.509604704 -0.697466304
3959350000  0.415782112 -0.665855936
3994300000  0.242238272 -0.602854016
4029250000  0.081397672 -0.571739392
4064200000  0.001728840 -0.584520320
4099150000  0.013563895 -0.623561024
4134100000  0.133321808 -0.703120512
4169050000  0.297266688 -0.773817472
4204000000  0.461744768 -0.808188672
4238950000  0.570842560 -0.802853952
4273900000  0.512802176 -0.668440832
4308850000  0.424826080 -0.431982752
4343800000  0.329927040 -0.227095984
4378750000  0.233252112 -0.117667808
4413700000  0.165945728 -0.119950768
4448650000  0.168319648 -0.217676304
4483600000  0.266491264 -0.386268736
4518550000  0.420077856 -0.615387904
4553500000  0.525205920 -0.778786752
4588450000  0.590001792 -0.740321536
4623400000  0.659849792 -0.563485504
4658350000  0.690796480 -0.365838464
4693300000  0.659809792 -0.207443760
4728250000  0.597098560 -0.100300376
4763200000  0.548206848 -0.077724032
4798150000  0.533933888 -0.171417568
4833100000  0.570594880 -0.321925280
4868050000  0.641401856 -0.488187584
4903000000  0.701057280 -0.588113984
4937950000  0.772578112 -0.573139392
4972900000  0.817290048 -0.488425504
5007850000  0.860291136 -0.360608800
5042800000  0.854689984 -0.242240000
5077750000  0.841471680 -0.170066640
5112700000  0.825033792 -0.215875664
5147650000  0.806018304 -0.325769600
5182600000  0.785298688 -0.462998368
5217550000  0.772302528 -0.563048448
5252500000  0.792661440 -0.587055040
5287450000  0.844432384 -0.552266240
5322400000  0.885679104 -0.471615744
5357350000  0.890686144 -0.358941664
5392300000  0.909128640 -0.260842032
5427250000  0.890650048 -0.251446960
5462200000  0.868834432 -0.311876224
5497150000  0.834753920 -0.407442496
5532100000  0.795410368 -0.504104192
5567050000  0.793254656 -0.566292416
5602000000  0.833888384 -0.548940288
5636950000  0.868322944 -0.509972160
5671900000  0.867795520 -0.385580256
5706850000  0.900380800 -0.310250048
5741800000  0.887871808 -0.254725104
5776750000  0.850584512 -0.256197568
5811700000  0.813150912 -0.294486624
5846650000  0.759681216 -0.352527040
5881600000  0.781714752 -0.388011360
5916550000  0.798908736 -0.414305216
5951500000  0.844382464 -0.370065536
5986450000  0.875864960 -0.283547296
6021400000  0.922324288 -0.173363232
6056350000  0.929939200 -0.106261064
6091300000  0.924685440 -0.089096520
6126250000  0.911431744 -0.113125520
6161200000  0.912558656 -0.168574128
6196150000  0.903588928 -0.268482528
6231100000  0.928373568 -0.311487584
6266050000  0.955681088 -0.334873248
6301000000  0.968847168 -0.255028192
6335950000  1.022276282 -0.173013392
6370900000  0.998510656 -0.119988648
6405850000  0.987888000 -0.049766484
6440800000  0.968334912 -0.076040416
6475750000  0.944731264 -0.116126728
6510700000  0.948250880 -0.195737104
6545650000  0.978948992 -0.250895856
6580600000  0.942805120 -0.286034720
6615550000  0.992907392 -0.241508656
6650500000  0.998900352 -0.179610576
6685450000  0.999615872 -0.097947864
6720400000  0.947957184 -0.080256304
6755350000  0.978903680  0.005565511
6790300000  0.958040704 -0.090744008
6825250000  0.933077440 -0.048857656
6860200000  0.923591808 -0.135311360
6895150000  0.884256832 -0.143528992
6930100000  0.928854976 -0.162820768
6965050000  0.958356224 -0.127819136
7000000000  0.952230272 -0.054319408
