!File created by NanoVNA
# Hz S RI R 50
  10000000 -0.293611360  0.013743228
  44950000 -0.280057024  0.048988536
  79900000 -0.260204432  0.085375504
 114850000 -0.228674800  0.125018552
 149800000 -0.185855136  0.150413376
 184750000 -0.131525096  0.163932592
 219700000 -0.072326464  0.163426592
 254650000 -0.013635056  0.149785184
 289600000  0.039818176  0.126044408
 324550000  0.088551272  0.094370312
 359500000  0.134135288  0.053130016
 394450000  0.176640736  0.000139852
 429400000  0.212923632 -0.066082500
 464350000  0.236782384 -0.143318768
 499300000  0.245357584 -0.223057856
 534250000  0.237778704 -0.298454016
 569200000  0.217580752 -0.365285216
 604150000  0.186328240 -0.422185376
 639100000  0.146825616 -0.472389536
 674050000  0.097016832 -0.517342272
 709000000  0.042282976 -0.554348032
 743950000 -0.013274887 -0.584306368
 778900000 -0.065953664 -0.604322880
 813850000 -0.115858872 -0.612888128
 848800000 -0.162414832 -0.609795072
 883750000 -0.206054704 -0.595096320
 918700000 -0.252664752 -0.567415104
 953650000 -0.293421856 -0.530822816
 988600000 -0.329960608 -0.489091136
1023550000 -0.355855968 -0.444116416
1058500000 -0.371068896 -0.397768544
1093450000 -0.372286528 -0.346346016
1128400000 -0.354142784 -0.284520736
1163350000 -0.310513312 -0.217809104
1198300000 -0.239307488 -0.150124000
1233250000 -0.142193312 -0.104947544
1268200000 -0.035999624 -0.095698376
1303150000  0.061595140 -0.123360408
1338100000  0.140238528 -0.181103488
1373050000  0.201249888 -0.259835632
1408000000  0.245911840 -0.353505312
1442950000  0.271370080 -0.454706624
1477900000  0.276182560 -0.546963136
1512850000  0.259547984 -0.624442240
1547800000  0.231235792 -0.681857664
1582750000  0.188084480 -0.720552064
1617700000  0.139986064 -0.753480960
1652650000  0.088316520 -0.774926336
1687600000  0.038324120 -0.797361024
1722550000 -0.003900216 -0.813884288
1757500000 -0.043966776 -0.822912192
1792450000 -0.064584672 -0.834670656
1827400000 -0.088309368 -0.829365248
1862350000 -0.109640792 -0.815829888
1897300000 -0.142114528 -0.792635584
1932250000 -0.170028752 -0.757129152
1967200000 -0.207353376 -0.723271296
2002150000 -0.242987200 -0.679942720
2037100000 -0.267755904 -0.640444800
2072050000 -0.276877344 -0.593896320
2107000000 -0.254931424 -0.531051168
2141950000 -0.191307920 -0.466970688
2176900000 -0.088063120 -0.412045440
2211850000  0.024449462 -0.392037152
2246800000  0.115815160 -0.405842752
2281750000  0.175893408 -0.439965184
2316700000  0.208164224 -0.489222976
2351650000  0.219174384 -0.554656896
2386600000  0.217419008 -0.630011072
2421550000  0.211956784 -0.701323328
2456500000  0.213648864 -0.750815104
2491450000  0.224740784 -0.790718720
2526400000  0.244097024 -0.807827264
2561350000  0.238430512 -0.811091776
2596300000  0.224230560 -0.808923648
2631250000  0.170124544 -0.814306816
2666200000  0.129899040 -0.833605952
2701150000  0.065671504 -0.836386432
2736100000  0.038265888 -0.850300096
2771050000  0.046221196 -0.862051584
2806000000  0.071834560 -0.858415104
2840950000  0.102945240 -0.850509248
2875900000  0.123506928 -0.823820544
2910850000  0.132935256 -0.800444928
2945800000  0.072690320 -0.767961472
2980750000  0.027881280 -0.739290240
3015700000 -0.016995012 -0.715885120
3050650000 -0.016522892 -0.697201920
3085600000  0.015644348 -0.704263296
3120550000  0.075353768 -0.703495872
3155500000  0.165470432 -0.701725760
3190450000  0.253586768 -0.686432640
3225400000  0.295097216 -0.681219584
3260350000  0.312827424 -0.674444224
3295300000  0.277044896 -0.682020736
3330250000  0.226155472 -0.693050176
3365200000  0.176171248 -0.719165376
3400150000  0.155041408 -0.747024448
3435100000  0.172835872 -0.793632512
3470050000  0.215478688 -0.799199552
3505000000  0.284520224 -0.815526208
3539950000  0.370140096 -0.824659904
3574900000  0.389796160 -0.809152768
3609850000  0.353406720 -0.773296768
3644800000  0.239833168 -0.754279808
3679750000  0.124387496 -0.722624320
3714700000  0.051830684 -0.728822528
3749650000  0.023266914 -0.752112704
3784600000  0.090374392 -0.798139328
3819550000  0.210294976 -0.828690624
3854500000  0.356376800 -0.822681024
3889450000  0.420311104 -0.784805952
3924400000  0.404979968 -0.732726464
3959350000  0.299409376 -0.648689088
3994300000  0.151461712 -0.531081376
4029250000  0.026839894 -0.475795968
4064200000 -0.050418928 -0.480541792
4099150000 -0.019220490 -0.536336352
4134100000  0.083075880 -0.628368384
4169050000  0.252509536 -0.705048768
4204000000  0.415397632 -0.752145920
4238950000  0.544580480 -0.731268864
4273900000  0.534625408 -0.594283584
4308850000  0.479609504 -0.380920544
4343800000  0.407191392 -0.187581600
4378750000  0.310989568 -0.080204312
4413700000  0.242145376 -0.071516600
4448650000  0.230946608 -0.160287728
4483600000  0.314229728 -0.317692384
4518550000  0.460468000 -0.527358592
4553500000  0.575947392 -0.692961600
4588450000  0.651902912 -0.685257280
4623400000  0.712744448 -0.544216384
4658350000  0.754705280 -0.357879392
4693300000  0.730188096 -0.212605680
4728250000  0.680022528 -0.124696376
4763200000  0.650777280 -0.111045320
4798150000  0.645012352 -0.214398976
4833100000  0.665373824 -0.394429184
4868050000  0.690164096 -0.576694912
4903000000  0.714330944 -0.656302976
4937950000  0.771292864 -0.627043648
4972900000  0.804121920 -0.535800384
5007850000  0.851502464 -0.399263488
5042800000  0.833310272 -0.300855104
5077750000  0.820916992 -0.238592384
5112700000  0.802542592 -0.262777152
5147650000  0.776043328 -0.357975200
5182600000  0.750532352 -0.482489888
5217550000  0.731853504 -0.570570176
5252500000  0.755543744 -0.590141568
5287450000  0.815488384 -0.549118208
5322400000  0.856188288 -0.472665568
5357350000  0.865400320 -0.357966176
5392300000  0.879307200 -0.255928928
5427250000  0.859216896 -0.259443856
5462200000  0.834889280 -0.304974720
5497150000  0.800893888 -0.389016256
5532100000  0.771583936 -0.468817120
5567050000  0.768904896 -0.527410624
5602000000  0.820117376 -0.505354816
5636950000  0.866376384 -0.439746048
5671900000  0.858783552 -0.363519328
5706850000  0.894273280 -0.261159456
5741800000  0.891241664 -0.196452240
5776750000  0.874133824 -0.198026096
5811700000  0.855482944 -0.242353760
5846650000  0.828854912 -0.312501184
5881600000  0.847702464 -0.376332256
5916550000  0.872886976 -0.403638464
5951500000  0.904924992 -0.389838304
5986450000  0.918239744 -0.306540928
6021400000  0.958669760 -0.213539248
6056350000  0.956736384 -0.140142544
6091300000  0.944256384 -0.118356856
6126250000  0.936677440 -0.130570648
6161200000  0.918546176 -0.205259360
6196150000  0.906180928 -0.296337248
6231100000  0.923454016 -0.338863328
6266050000  0.946487936 -0.358040288
6301000000  0.961036224 -0.277548544
6335950000  1.009905339 -0.200510992
6370900000  0.982562752 -0.136674352
6405850000  0.975120576 -0.067405544
6440800000  0.927470464 -0.110940896
6475750000  0.926355584 -0.112363880
6510700000  0.930594240 -0.192497296
6545650000  0.922434688 -0.281464128
6580600000  0.925718208 -0.279364576
6615550000  0.955971264 -0.245256000
6650500000  0.957019456 -0.159946000
6685450000  0.962876608 -0.084086112
6720400000  0.969214976  0.009873960
6755350000  0.926568896 -0.002417325
6790300000  0.911793920 -0.040922968
6825250000  0.902246080 -0.012332117
6860200000  0.926702592 -0.069406112
6895150000  0.910536640 -0.094789976
6930100000  0.943150656 -0.114162632
6965050000  0.967021760 -0.080575304
7000000000  0.999591296 -0.011548079
