!File created by NanoVNA
# Hz S RI R 50
  10000000 -0.293839200  0.013479898  0.629121280 -0.032756486 0 0 0 0
  44950000 -0.280181760  0.049191144  0.624819456 -0.115623080 0 0 0 0
  79900000 -0.260197904  0.085547616  0.610407552 -0.207047776 0 0 0 0
 114850000 -0.228744416  0.125034872  0.575716544 -0.306723456 0 0 0 0
 149800000 -0.185778432  0.150362304  0.514031456 -0.392130464 0 0 0 0
 184750000 -0.131654384  0.164102736  0.444284992 -0.456018848 0 0 0 0
 219700000 -0.072388608  0.163433552  0.374880672 -0.509187456 0 0 0 0
 254650000 -0.013984810  0.149690752  0.299755200 -0.557121984 0 0 0 0
 289600000  0.039661512  0.126193080  0.217462288 -0.597859264 0 0 0 0
 324550000  0.088585912  0.094378744  0.123707440 -0.623161280 0 0 0 0
 359500000  0.134116664  0.052930592  0.027240898 -0.631418240 0 0 0 0
 394450000  0.176728528  0.000243637 -0.063909956 -0.622795072 0 0 0 0
 429400000  0.212878000 -0.066484236 -0.153582736 -0.604903680 0 0 0 0
 464350000  0.236932016 -0.143062016 -0.243762096 -0.571937728 0 0 0 0
 499300000  0.245078960 -0.223212512 -0.327267744 -0.518639552 0 0 0 0
 534250000  0.237683280 -0.298515296 -0.391537920 -0.451240128 0 0 0 0
 569200000  0.217591904 -0.365105408 -0.437271072 -0.383720832 0 0 0 0
 604150000  0.186130352 -0.422653376 -0.476196416 -0.318105024 0 0 0 0
 639100000  0.146228720 -0.472516544 -0.511745696 -0.252029840 0 0 0 0
 674050000  0.097659904 -0.517432224 -0.540740992 -0.171661088 0 0 0 0
 709000000  0.042754768 -0.554203136 -0.547051584 -0.083108168 0 0 0 0
 743950000 -0.013538193 -0.584358528 -0.529667904 -0.006171249 0 0 0 0
 778900000 -0.065971272 -0.604290560 -0.506059936  0.048540684 0 0 0 0
 813850000 -0.116752216 -0.612862464 -0.492150464  0.091211432 0 0 0 0
 848800000 -0.162322144 -0.609939136 -0.490303552  0.137853168 0 0 0 0
 883750000 -0.206192784 -0.595072960 -0.489040032  0.202137440 0 0 0 0
 918700000 -0.251932592 -0.567613632 -0.465112896  0.284117312 0 0 0 0
 953650000 -0.292459488 -0.531167136 -0.412695584  0.354538208 0 0 0 0
 988600000 -0.330135360 -0.488322144 -0.349648000  0.402165536 0 0 0 0
1023550000 -0.356114848 -0.444189568 -0.297850240  0.430939424 0 0 0 0
1058500000 -0.371419040 -0.397863392 -0.255414224  0.460693856 0 0 0 0
1093450000 -0.372660032 -0.345907744 -0.214168848  0.505744928 0 0 0 0
1128400000 -0.353578336 -0.285765184 -0.151466816  0.563943616 0 0 0 0
1163350000 -0.310340160 -0.218057888 -0.052618900  0.612155456 0 0 0 0
1198300000 -0.238605792 -0.150483120  0.061467332  0.625059072 0 0 0 0
1233250000 -0.141710160 -0.105046744  0.174617776  0.610901632 0 0 0 0
1268200000 -0.035568324 -0.095644016  0.290997184  0.571907200 0 0 0 0
1303150000  0.061672484 -0.123527064  0.396538048  0.498766528 0 0 0 0
1338100000  0.140096096 -0.181819920  0.472329664  0.396493728 0 0 0 0
1373050000  0.201262640 -0.260103696  0.511857824  0.290898016 0 0 0 0
1408000000  0.246259136 -0.353691968  0.527433824  0.192540176 0 0 0 0
1442950000  0.272773984 -0.453910208  0.526341088  0.098783064 0 0 0 0
1477900000  0.274989504 -0.547811456  0.508220800  0.011081503 0 0 0 0
1512850000  0.258634688 -0.625133248  0.473586880 -0.060380520 0 0 0 0
1547800000  0.226511248 -0.684020736  0.430847424 -0.115155208 0 0 0 0
1582750000  0.188074784 -0.720290496  0.391646624 -0.154279568 0 0 0 0
1617700000  0.139973600 -0.753263680  0.357152640 -0.184823232 0 0 0 0
1652650000  0.087272368 -0.775468224  0.325004256 -0.218159728 0 0 0 0
1687600000  0.039851004 -0.797331584  0.290022240 -0.247926944 0 0 0 0
1722550000 -0.004283790 -0.814214464  0.247748176 -0.271607200 0 0 0 0
1757500000 -0.041229488 -0.823178240  0.212230336 -0.274861536 0 0 0 0
1792450000 -0.068040584 -0.834638272  0.183906432 -0.278160736 0 0 0 0
1827400000 -0.088170904 -0.830545984  0.165009648 -0.287407520 0 0 0 0
1862350000 -0.111912288 -0.814701184  0.149864160 -0.306136320 0 0 0 0
1897300000 -0.142693328 -0.792264960  0.124679976 -0.335998304 0 0 0 0
1932250000 -0.168467312 -0.757537472  0.089471112 -0.366124672 0 0 0 0
1967200000 -0.212561984 -0.724864384  0.032899052 -0.389605248 0 0 0 0
2002150000 -0.241924192 -0.681131840 -0.023961140 -0.395671488 0 0 0 0
2037100000 -0.268935264 -0.640918720 -0.075520184 -0.396136896 0 0 0 0
2072050000 -0.279480064 -0.592810944 -0.132191880 -0.397601120 0 0 0 0
2107000000 -0.252952912 -0.531567680 -0.197775520 -0.394671456 0 0 0 0
2141950000 -0.190340352 -0.466250496 -0.285074624 -0.369878336 0 0 0 0
2176900000 -0.088884728 -0.412207392 -0.367284256 -0.312097248 0 0 0 0
2211850000  0.023810132 -0.391696736 -0.428848832 -0.221248096 0 0 0 0
2246800000  0.114535224 -0.405693120 -0.456845728 -0.119565296 0 0 0 0
2281750000  0.177294496 -0.439779072 -0.448274528 -0.023406808 0 0 0 0
2316700000  0.206360656 -0.492088608 -0.412903424  0.067961272 0 0 0 0
2351650000  0.220243504 -0.554548736 -0.366855584  0.124841000 0 0 0 0
2386600000  0.217944672 -0.629829824 -0.317576928  0.171414368 0 0 0 0
2421550000  0.211626592 -0.700861248 -0.268924416  0.205296720 0 0 0 0
2456500000  0.216772720 -0.750180288 -0.212412560  0.226169456 0 0 0 0
2491450000  0.222613040 -0.791219264 -0.157503104  0.226049616 0 0 0 0
2526400000  0.238933744 -0.808423232 -0.121125432  0.211622368 0 0 0 0
2561350000  0.244082048 -0.810046784 -0.103580904  0.199496080 0 0 0 0
2596300000  0.218521600 -0.809263232 -0.095958312  0.196931328 0 0 0 0
2631250000  0.166608224 -0.814390848 -0.087935464  0.205377072 0 0 0 0
2666200000  0.127325568 -0.816844288 -0.070739176  0.223407760 0 0 0 0
2701150000  0.062341348 -0.837427520 -0.033677016  0.242476592 0 0 0 0
2736100000  0.039122428 -0.851034112  0.013822813  0.239941104 0 0 0 0
2771050000  0.045884640 -0.862893824  0.052138032  0.210578784 0 0 0 0
2806000000  0.073800776 -0.859651200  0.055784984  0.181950864 0 0 0 0
2840950000  0.106317408 -0.851518208  0.049627904  0.169268336 0 0 0 0
2875900000  0.120203544 -0.823657984  0.049706320  0.175942384 0 0 0 0
2910850000  0.128576968 -0.799840832  0.062302752  0.194545008 0 0 0 0
2945800000  0.078747264 -0.765644928  0.098738712  0.213404800 0 0 0 0
2980750000  0.029579474 -0.736771776  0.156394640  0.216290064 0 0 0 0
3015700000 -0.019677856 -0.716498816  0.225229264  0.173909568 0 0 0 0
3050650000 -0.014285372 -0.697988096  0.252900176  0.097826832 0 0 0 0
3085600000  0.014272761 -0.703839360  0.235259984  0.036256556 0 0 0 0
3120550000  0.074670056 -0.703752448  0.206174176  0.005121069 0 0 0 0
3155500000  0.164669744 -0.702071936  0.189503376 -0.003347548 0 0 0 0
3190450000  0.242972208 -0.688958528  0.189125440 -0.012815746 0 0 0 0
3225400000  0.299273600 -0.680500608  0.198502608 -0.032622476 0 0 0 0
3260350000  0.313562112 -0.674883136  0.208451664 -0.064786992 0 0 0 0
3295300000  0.279109920 -0.679810048  0.200632432 -0.120231512 0 0 0 0
3330250000  0.226722992 -0.692688256  0.155635728 -0.169462736 0 0 0 0
3365200000  0.171242288 -0.719393088  0.086398088 -0.177782320 0 0 0 0
3400150000  0.156366320 -0.747964160  0.053945276 -0.145568496 0 0 0 0
3435100000  0.171108208 -0.794076736  0.039235544 -0.120132360 0 0 0 0
3470050000  0.213422480 -0.799725312  0.039741716 -0.106318560 0 0 0 0
3505000000  0.282877568 -0.815773312  0.044647840 -0.105903272 0 0 0 0
3539950000  0.381355232 -0.817534272  0.046796816 -0.116337736 0 0 0 0
3574900000  0.389455904 -0.808426816  0.036757668 -0.135770336 0 0 0 0
3609850000  0.353193216 -0.773655424  0.010498108 -0.153731280 0 0 0 0
3644800000  0.236742464 -0.755629568 -0.028189472 -0.151330080 0 0 0 0
3679750000  0.129093320 -0.724575616 -0.056549856 -0.123479184 0 0 0 0
3714700000  0.043750504 -0.727076800 -0.060835628 -0.095950944 0 0 0 0
3749650000  0.008686775 -0.751990528 -0.055330052 -0.081103608 0 0 0 0
3784600000  0.096990680 -0.798884288 -0.048786260 -0.078703192 0 0 0 0
3819550000  0.215656512 -0.827485440 -0.050058316 -0.082375696 0 0 0 0
3854500000  0.350349472 -0.826528832 -0.057956780 -0.089174544 0 0 0 0
3889450000  0.412264192 -0.792174080 -0.076379136 -0.093096320 0 0 0 0
3924400000  0.406351232 -0.731108800 -0.104489848 -0.085162832 0 0 0 0
3959350000  0.297209888 -0.647204736 -0.128992248 -0.049038128 0 0 0 0
3994300000  0.146764208 -0.529393184 -0.122001128 -0.005686738 0 0 0 0
4029250000  0.019305464 -0.472666688 -0.099795944  0.009486286 0 0 0 0
4064200000 -0.058136040 -0.477905536 -0.083988528  0.012689122 0 0 0 0
4099150000 -0.036256860 -0.534181600 -0.078039896  0.009321603 0 0 0 0
4134100000  0.078526032 -0.627503040 -0.079019504  0.007794815 0 0 0 0
4169050000  0.240607760 -0.712084864 -0.084586200  0.010891629 0 0 0 0
4204000000  0.415420704 -0.749991040 -0.093602248  0.021155592 0 0 0 0
4238950000  0.543622912 -0.732818112 -0.095712448  0.047889432 0 0 0 0
4273900000  0.533056032 -0.595325504 -0.072294584  0.073789504 0 0 0 0
4308850000  0.481985952 -0.377203456 -0.045809828  0.070880384 0 0 0 0
4343800000  0.410691456 -0.182696032 -0.033865624  0.060056068 0 0 0 0
4378750000  0.314068896 -0.073922528 -0.033869340  0.052314232 0 0 0 0
4413700000  0.241930592 -0.067750576 -0.034779900  0.051516484 0 0 0 0
4448650000  0.236495328 -0.146786608 -0.036989452  0.055005664 0 0 0 0
4483600000  0.316586336 -0.314113888 -0.038372252  0.063374960 0 0 0 0
4518550000  0.458584320 -0.529543872 -0.033345842  0.078358624 0 0 0 0
4553500000  0.579249728 -0.689282752 -0.013672823  0.091717296 0 0 0 0
4588450000  0.649289280 -0.688137152  0.009840739  0.086158560 0 0 0 0
4623400000  0.716415296 -0.543560000  0.020530106  0.071827152 0 0 0 0
4658350000  0.755045504 -0.359515872  0.021310158  0.063302248 0 0 0 0
4693300000  0.738498624 -0.203831344  0.022127870  0.060454172 0 0 0 0
4728250000  0.685956608 -0.114290656  0.025031512  0.060445864 0 0 0 0
4763200000  0.653725248 -0.107204992  0.031884596  0.060496372 0 0 0 0
4798150000  0.648732864 -0.211723504  0.040701368  0.061849608 0 0 0 0
4833100000  0.667221824 -0.397074208  0.055090344  0.060093204 0 0 0 0
4868050000  0.695911744 -0.570842816  0.069519136  0.045875468 0 0 0 0
4903000000  0.717124352 -0.653154368  0.069871680  0.027067186 0 0 0 0
4937950000  0.765382400 -0.630656064  0.062423232  0.016043515 0 0 0 0
4972900000  0.805521664 -0.534613312  0.057238760  0.011133137 0 0 0 0
5007850000  0.845982848 -0.410354208  0.055977912  0.008705919 0 0 0 0
5042800000  0.838045184 -0.297992416  0.057111284  0.004227780 0 0 0 0
5077750000  0.824483840 -0.225615600  0.059128972 -0.000110120 0 0 0 0
5112700000  0.804233600 -0.269441600  0.063178616 -0.007025501 0 0 0 0
5147650000  0.777672128 -0.361573664  0.065262400 -0.017429610 0 0 0 0
5182600000  0.749006336 -0.484738784  0.058923156 -0.029572880 0 0 0 0
5217550000  0.735507456 -0.569053120  0.048925748 -0.032797486 0 0 0 0
5252500000  0.755223296 -0.588163584  0.041498700 -0.031453704 0 0 0 0
5287450000  0.816608640 -0.546821952  0.038441760 -0.029495880 0 0 0 0
5322400000  0.859215552 -0.466966944  0.036977512 -0.031204494 0 0 0 0
5357350000  0.861076544 -0.368770016  0.034999820 -0.035751112 0 0 0 0
5392300000  0.879811968 -0.260729168  0.033444562 -0.041783936 0 0 0 0
5427250000  0.859588352 -0.252355792  0.030581870 -0.050115872 0 0 0 0
5462200000  0.834109696 -0.299682112  0.021709926 -0.059340040 0 0 0 0
5497150000  0.799723776 -0.393037856  0.008113330 -0.063129188 0 0 0 0
5532100000  0.771101632 -0.469955456 -0.000961320 -0.060157348 0 0 0 0
5567050000  0.792384704 -0.513001088 -0.003666244 -0.056440184 0 0 0 0
5602000000  0.820221504 -0.504547104 -0.005787727 -0.054549192 0 0 0 0
5636950000  0.859269120 -0.454433024 -0.009496636 -0.055133148 0 0 0 0
5671900000  0.863289088 -0.346105664 -0.015039138 -0.055949192 0 0 0 0
5706850000  0.893854848 -0.242100992 -0.024296708 -0.056550040 0 0 0 0
5741800000  0.890295936 -0.193373056 -0.037349248 -0.053969628 0 0 0 0
5776750000  0.875939968 -0.203976000 -0.050216300 -0.044947008 0 0 0 0
5811700000  0.855640896 -0.242528816 -0.056341240 -0.030593832 0 0 0 0
5846650000  0.826986688 -0.313944576 -0.053943800 -0.018635258 0 0 0 0
5881600000  0.855259328 -0.367497248 -0.048645476 -0.011626746 0 0 0 0
5916550000  0.883359232 -0.385910048 -0.044954432 -0.009365531 0 0 0 0
5951500000  0.897164544 -0.407929376 -0.044540532 -0.006411978 0 0 0 0
5986450000  0.918418240 -0.317859648 -0.045600456 -0.002799688 0 0 0 0
6021400000  0.960955520 -0.220891280 -0.047944456  0.001325246 0 0 0 0
6056350000  0.957498816 -0.142670976 -0.050134960  0.009154917 0 0 0 0
6091300000  0.945177792 -0.119168776 -0.047836216  0.018330474 0 0 0 0
6126250000  0.932888512 -0.137088560 -0.040960792  0.023333072 0 0 0 0
6161200000  0.913823104 -0.208046496 -0.032868912  0.023299478 0 0 0 0
6196150000  0.910092544 -0.285758688 -0.028037752  0.020546984 0 0 0 0
6231100000  0.923991744 -0.338288896 -0.025548416  0.019096764 0 0 0 0
6266050000  0.945131392 -0.361228160 -0.025164824  0.020321426 0 0 0 0
6301000000  0.962155008 -0.282801984 -0.025068968  0.023688106 0 0 0 0
6335950000  1.007782817 -0.200967968 -0.026581578  0.031207484 0 0 0 0
6370900000  0.984688064 -0.117067848 -0.024592398  0.036471528 0 0 0 0
6405850000  0.965206336 -0.089344280 -0.012882621  0.043196876 0 0 0 0
6440800000  0.938827904 -0.101147880 -0.004439319  0.043431840 0 0 0 0
6475750000  0.932724544 -0.119225320  0.003095762  0.038310148 0 0 0 0
6510700000  0.925246592 -0.232488080  0.003749614  0.037481416 0 0 0 0
6545650000  0.946554240 -0.269303648  0.002050358  0.036369584 0 0 0 0
6580600000  0.919253312 -0.289367648  0.000906460  0.040243100 0 0 0 0
6615550000  0.968090304 -0.238126272  0.004168264  0.046735116 0 0 0 0
6650500000  0.971379072 -0.155529888  0.010389288  0.049718140 0 0 0 0
6685450000  0.950853376 -0.094456128  0.027779968  0.048302920 0 0 0 0
6720400000  0.925812672 -0.032038354  0.040227148  0.039923084 0 0 0 0
6755350000  0.906802048  0.007481697  0.046207024  0.026908372 0 0 0 0
6790300000  0.922996928 -0.070635368  0.046409496  0.013252378 0 0 0 0
6825250000  0.860786752  0.027055550  0.037567428  0.011742454 0 0 0 0
6860200000  0.912463680 -0.095633496  0.034712492  0.006622580 0 0 0 0
6895150000  0.920277312 -0.103258072  0.039820208  0.007133467 0 0 0 0
6930100000  0.948007616 -0.107498784  0.039280884  0.002122595 0 0 0 0
6965050000  0.988812224 -0.080214792  0.042555576 -0.009062721 0 0 0 0
7000000000  0.972431616 -0.025449260  0.041819124 -0.016957898 0 0 0 0
