!File created by NanoVNA
# Hz S RI R 50
  10000000  0.025152150 -0.008937718
  44950000  0.017544756 -0.052896284
  79900000 -0.008390029 -0.085639040
 114850000 -0.041587532 -0.099597920
 149800000 -0.064727656 -0.100017088
 184750000 -0.078474552 -0.095886392
 219700000 -0.088163960 -0.091722256
 254650000 -0.097844496 -0.083774376
 289600000 -0.104346168 -0.066290460
 324550000 -0.097783424 -0.037941640
 359500000 -0.070369688 -0.007898795
 394450000 -0.020999546  0.010507365
 429400000  0.040942040  0.007696902
 464350000  0.103873616 -0.018576622
 499300000  0.158578608 -0.063260540
 534250000  0.201603504 -0.119703352
 569200000  0.233709328 -0.184608368
 604150000  0.253657856 -0.255706496
 639100000  0.258799440 -0.332218752
 674050000  0.247949472 -0.410571392
 709000000  0.217961696 -0.482738880
 743950000  0.175322736 -0.547301056
 778900000  0.123058896 -0.597320000
 813850000  0.067026040 -0.633226432
 848800000  0.010044080 -0.655365184
 883750000 -0.044213008 -0.664787200
 918700000 -0.099389752 -0.665686528
 953650000 -0.145976352 -0.655955904
 988600000 -0.194246560 -0.640997888
1023550000 -0.233413968 -0.619808960
1058500000 -0.269099616 -0.590121088
1093450000 -0.300698880 -0.550282560
1128400000 -0.319828288 -0.496793888
1163350000 -0.323758880 -0.435962784
1198300000 -0.307523520 -0.370660128
1233250000 -0.267919904 -0.312184480
1268200000 -0.213285152 -0.269159456
1303150000 -0.145687952 -0.243391888
1338100000 -0.070720760 -0.232683232
1373050000  0.012779790 -0.239923360
1408000000  0.097933472 -0.272286464
1442950000  0.170444576 -0.333069856
1477900000  0.216559888 -0.411570656
1512850000  0.230370544 -0.494255040
1547800000  0.225234560 -0.565324352
1582750000  0.204920912 -0.620101184
1617700000  0.185121728 -0.665878208
1652650000  0.165590240 -0.702176704
1687600000  0.149234176 -0.736089472
1722550000  0.124857304 -0.766561344
1757500000  0.094999840 -0.786036864
1792450000  0.064676448 -0.804107456
1827400000  0.033179012 -0.808204736
1862350000  0.007530763 -0.807600640
1897300000 -0.015118486 -0.803019008
1932250000 -0.024977716 -0.792913152
1967200000 -0.037881224 -0.793491328
2002150000 -0.046778820 -0.785503424
2037100000 -0.064699984 -0.776370496
2072050000 -0.080410744 -0.758008832
2107000000 -0.088682824 -0.724828736
2141950000 -0.077367360 -0.694387200
2176900000 -0.053385716 -0.667275392
2211850000 -0.022192654 -0.659157760
2246800000 -0.002228742 -0.658097920
2281750000  0.024694328 -0.661658752
2316700000  0.035178440 -0.659075520
2351650000  0.061538748 -0.652781632
2386600000  0.090754944 -0.658400576
2421550000  0.114152224 -0.680546688
2456500000  0.123964504 -0.705507072
2491450000  0.122534976 -0.730211648
2526400000  0.120896520 -0.737709120
2561350000  0.122661840 -0.726716224
2596300000  0.128002480 -0.712281408
2631250000  0.141304336 -0.705140992
2666200000  0.175750432 -0.715680704
2701150000  0.171027888 -0.718557888
2736100000  0.184990656 -0.716433408
2771050000  0.208299456 -0.712969472
2806000000  0.248620800 -0.719799680
2840950000  0.285320416 -0.748800000
2875900000  0.296695104 -0.776701888
2910850000  0.308761664 -0.814958912
2945800000  0.293621248 -0.842296064
2980750000  0.264140480 -0.862326912
3015700000  0.229826368 -0.882286592
3050650000  0.200194976 -0.856541952
3085600000  0.186674800 -0.809467072
3120550000  0.234412768 -0.765511680
3155500000  0.294912256 -0.778610560
3190450000  0.320131424 -0.800829632
3225400000  0.315742464 -0.832674880
3260350000  0.320321792 -0.852285568
3295300000  0.310793216 -0.862259392
3330250000  0.304447520 -0.864463552
3365200000  0.302981696 -0.861647360
3400150000  0.297607904 -0.853171584
3435100000  0.287676000 -0.865450624
3470050000  0.247121120 -0.842008640
3505000000  0.227760656 -0.841143808
3539950000  0.252691024 -0.837271552
3574900000  0.233790176 -0.821406400
3609850000  0.250977344 -0.776692096
3644800000  0.260530704 -0.737359296
3679750000  0.289106240 -0.686575616
3714700000  0.330692608 -0.660360704
3749650000  0.359682240 -0.656189056
3784600000  0.419514016 -0.670892224
3819550000  0.478291008 -0.679798016
3854500000  0.520662144 -0.702758080
3889450000  0.518497888 -0.727454656
3924400000  0.524082240 -0.744018880
3959350000  0.536867488 -0.759695488
3994300000  0.540040896 -0.757923136
4029250000  0.552139200 -0.785837312
4064200000  0.569192192 -0.819675392
4099150000  0.540743296 -0.801424256
4134100000  0.577995456 -0.774068800
4169050000  0.572310464 -0.793416064
4204000000  0.548726016 -0.807258176
4238950000  0.567154368 -0.811261632
4273900000  0.555676800 -0.809465536
4308850000  0.578520832 -0.810566656
4343800000  0.605394688 -0.808174272
4378750000  0.587708864 -0.805480704
4413700000  0.567352960 -0.783372608
4448650000  0.576581184 -0.763570816
4483600000  0.561654144 -0.781653824
4518550000  0.560736448 -0.790529408
4553500000  0.561323648 -0.782392960
4588450000  0.550349632 -0.763540032
4623400000  0.553388288 -0.731371200
4658350000  0.579404480 -0.697704704
4693300000  0.559234560 -0.684168640
4728250000  0.542092864 -0.642441280
4763200000  0.602949184 -0.604552896
4798150000  0.632047424 -0.606514624
4833100000  0.676168384 -0.600848448
4868050000  0.719136896 -0.599205824
4903000000  0.735745600 -0.605284928
4937950000  0.756835968 -0.609857792
4972900000  0.739663808 -0.628456960
5007850000  0.741893184 -0.656214784
5042800000  0.736650688 -0.632095872
5077750000  0.770142080 -0.629757120
5112700000  0.778788928 -0.641648512
5147650000  0.778347712 -0.627647424
5182600000  0.780486976 -0.611210624
5217550000  0.776507008 -0.603699904
5252500000  0.784374336 -0.601293952
5287450000  0.794224896 -0.614786752
5322400000  0.798253696 -0.635353280
5357350000  0.778906368 -0.606547264
5392300000  0.819604544 -0.583751104
5427250000  0.809545792 -0.602518144
5462200000  0.810318720 -0.599049408
5497150000  0.801204352 -0.584878720
5532100000  0.792365696 -0.570645760
5567050000  0.808360704 -0.566282176
5602000000  0.824707968 -0.561521728
5636950000  0.828506496 -0.568140736
5671900000  0.785667648 -0.545349888
5706850000  0.820800256 -0.522167616
5741800000  0.818277568 -0.522754976
5776750000  0.804726336 -0.511066144
5811700000  0.804998912 -0.479353824
5846650000  0.777958912 -0.447093920
5881600000  0.821872640 -0.411389568
5916550000  0.831275328 -0.401731744
5951500000  0.842456576 -0.396123840
5986450000  0.847893952 -0.355954784
6021400000  0.892513664 -0.348015168
6056350000  0.902908352 -0.340733792
6091300000  0.908057088 -0.332835296
6126250000  0.908988608 -0.331420800
6161200000  0.912244096 -0.331580416
6196150000  0.917772224 -0.343369056
6231100000  0.938081408 -0.347739872
6266050000  0.954752896 -0.350007456
6301000000  0.952611008 -0.303240832
6335950000  1.000281334 -0.313735104
6370900000  0.954512256 -0.298691168
6405850000  0.981088960 -0.256579136
6440800000  0.937304704 -0.293196672
6475750000  0.941396992 -0.268416768
6510700000  0.962128192 -0.317245120
6545650000  0.956314560 -0.317804800
6580600000  0.984839808 -0.294364704
6615550000  0.989476288 -0.260901504
6650500000  0.984726656 -0.236903296
6685450000  0.952821504 -0.233177744
6720400000  0.975763584 -0.240730864
6755350000  0.937663488 -0.207209792
6790300000  0.958599680 -0.274559264
6825250000  0.949673920 -0.184161680
6860200000  0.974016000 -0.215225280
6895150000  0.925920576 -0.172828096
6930100000  0.936836096 -0.166738768
6965050000  0.948533248 -0.152949680
7000000000  0.938256128 -0.141848896
