!File created by NanoVNA
# Hz S RI R 50
  10000000  0.025074448 -0.009008309  0.970155648 -0.049841776 0 0 0 0
  44950000  0.017572674 -0.052938924  0.936828928 -0.212498896 0 0 0 0
  79900000 -0.008347859 -0.085882344  0.878471360 -0.356833600 0 0 0 0
 114850000 -0.041524836 -0.099685920  0.802264960 -0.483037920 0 0 0 0
 149800000 -0.064682404 -0.100047616  0.714814528 -0.601177664 0 0 0 0
 184750000 -0.078474776 -0.095927192  0.605107072 -0.705501952 0 0 0 0
 219700000 -0.088037816 -0.091722120  0.473826400 -0.787345088 0 0 0 0
 254650000 -0.097814144 -0.083799448  0.332603008 -0.836820992 0 0 0 0
 289600000 -0.104284232 -0.066320064  0.200859648 -0.861452032 0 0 0 0
 324550000 -0.097547880 -0.037796460  0.070587976 -0.872996800 0 0 0 0
 359500000 -0.070382960 -0.007978997 -0.066312084 -0.868154240 0 0 0 0
 394450000 -0.020911898  0.010517825 -0.199136064 -0.836438848 0 0 0 0
 429400000  0.041138328  0.007487451 -0.323060256 -0.785168448 0 0 0 0
 464350000  0.103709760 -0.018440900 -0.437174560 -0.717537024 0 0 0 0
 499300000  0.158416576 -0.063163416 -0.542703360 -0.625539520 0 0 0 0
 534250000  0.201863680 -0.119954008 -0.622523520 -0.513540640 0 0 0 0
 569200000  0.233695664 -0.184624400 -0.672077632 -0.393340608 0 0 0 0
 604150000  0.253611840 -0.256123728 -0.697343168 -0.279915808 0 0 0 0
 639100000  0.259224240 -0.331976576 -0.711360128 -0.174791104 0 0 0 0
 674050000  0.247321584 -0.410715104 -0.715596992 -0.064085960 0 0 0 0
 709000000  0.218132928 -0.483038016 -0.693099200  0.051746964 0 0 0 0
 743950000  0.174940016 -0.547469184 -0.639200896  0.150344208 0 0 0 0
 778900000  0.123765152 -0.597367232 -0.575152896  0.213610688 0 0 0 0
 813850000  0.067170544 -0.633077056 -0.525988576  0.252203024 0 0 0 0
 848800000  0.009303121 -0.655255488 -0.495934624  0.291078752 0 0 0 0
 883750000 -0.043250640 -0.665780160 -0.473455360  0.343422912 0 0 0 0
 918700000 -0.099363784 -0.665691776 -0.429011296  0.415173536 0 0 0 0
 953650000 -0.147850944 -0.656046848 -0.355157312  0.475460032 0 0 0 0
 988600000 -0.194041200 -0.641077760 -0.271441216  0.503684032 0 0 0 0
1023550000 -0.233897664 -0.619255936 -0.202511344  0.507442880 0 0 0 0
1058500000 -0.270671680 -0.589549120 -0.155723728  0.508266688 0 0 0 0
1093450000 -0.300899968 -0.549902336 -0.119133864  0.526457376 0 0 0 0
1128400000 -0.319779008 -0.497334784 -0.068264696  0.564513472 0 0 0 0
1163350000 -0.323861344 -0.435335712  0.014283107  0.600886464 0 0 0 0
1198300000 -0.307794176 -0.369877920  0.117638360  0.609003072 0 0 0 0
1233250000 -0.268037744 -0.311890304  0.218910912  0.589496000 0 0 0 0
1268200000 -0.213069616 -0.269238848  0.318137600  0.549613312 0 0 0 0
1303150000 -0.145424336 -0.243424528  0.410153920  0.486830688 0 0 0 0
1338100000 -0.070739080 -0.232581456  0.485070336  0.403792928 0 0 0 0
1373050000  0.012250879 -0.239846256  0.539240256  0.304471072 0 0 0 0
1408000000  0.098170912 -0.272343776  0.565664640  0.202678128 0 0 0 0
1442950000  0.170171680 -0.333360000  0.570014272  0.102411600 0 0 0 0
1477900000  0.217683600 -0.411615936  0.557222912  0.010023995 0 0 0 0
1512850000  0.231416576 -0.493526208  0.529052736 -0.072360208 0 0 0 0
1547800000  0.225587968 -0.565406528  0.488791392 -0.140981936 0 0 0 0
1582750000  0.204043168 -0.620782016  0.439060928 -0.201296032 0 0 0 0
1617700000  0.185197840 -0.666667008  0.388844384 -0.242069200 0 0 0 0
1652650000  0.165934640 -0.701824320  0.339722208 -0.274602656 0 0 0 0
1687600000  0.146705136 -0.735836224  0.290347712 -0.299496192 0 0 0 0
1722550000  0.124250464 -0.766559808  0.243675360 -0.314963552 0 0 0 0
1757500000  0.093694600 -0.786941696  0.201106016 -0.322436288 0 0 0 0
1792450000  0.066496352 -0.803853696  0.170100416 -0.324705952 0 0 0 0
1827400000  0.033605804 -0.807803072  0.144198672 -0.334640896 0 0 0 0
1862350000  0.007863308 -0.805808640  0.120115912 -0.351110400 0 0 0 0
1897300000 -0.015800857 -0.802860800  0.083867368 -0.372404192 0 0 0 0
1932250000 -0.026946416 -0.793047488  0.036614552 -0.389647648 0 0 0 0
1967200000 -0.040334100 -0.795748608 -0.018861174 -0.393737824 0 0 0 0
2002150000 -0.049206852 -0.785973184 -0.069462440 -0.384400064 0 0 0 0
2037100000 -0.063524464 -0.775931136 -0.107320136 -0.374925056 0 0 0 0
2072050000 -0.081537696 -0.757660736 -0.147141952 -0.370236608 0 0 0 0
2107000000 -0.089608744 -0.724719616 -0.198524528 -0.368584416 0 0 0 0
2141950000 -0.082326768 -0.694320960 -0.267820096 -0.355408896 0 0 0 0
2176900000 -0.056268512 -0.666532096 -0.340487232 -0.316732384 0 0 0 0
2211850000 -0.025811110 -0.657842112 -0.400310624 -0.250613840 0 0 0 0
2246800000 -0.001852821 -0.657970304 -0.436936640 -0.168880640 0 0 0 0
2281750000  0.020479986 -0.661792192 -0.448491936 -0.093565824 0 0 0 0
2316700000  0.040468216 -0.661098496 -0.449922112 -0.023890252 0 0 0 0
2351650000  0.061208964 -0.653637568 -0.447412320  0.042896992 0 0 0 0
2386600000  0.088558616 -0.659601600 -0.439426688  0.117568624 0 0 0 0
2421550000  0.111004072 -0.681504576 -0.414515168  0.198636848 0 0 0 0
2456500000  0.128062024 -0.704566208 -0.358767072  0.272965536 0 0 0 0
2491450000  0.119625648 -0.731116416 -0.278626656  0.318399776 0 0 0 0
2526400000  0.117258272 -0.737402176 -0.210262256  0.329277472 0 0 0 0
2561350000  0.122057712 -0.727203968 -0.170658496  0.330011456 0 0 0 0
2596300000  0.127244800 -0.709714560 -0.134923360  0.344183648 0 0 0 0
2631250000  0.143730080 -0.707034560 -0.089549816  0.365714944 0 0 0 0
2666200000  0.177615568 -0.698937216 -0.030979294  0.387680992 0 0 0 0
2701150000  0.170201280 -0.718923264  0.060288220  0.401546112 0 0 0 0
2736100000  0.183878608 -0.717506496  0.163861168  0.377420256 0 0 0 0
2771050000  0.212028400 -0.712934912  0.254934432  0.281758688 0 0 0 0
2806000000  0.248781776 -0.720526400  0.268637088  0.171003248 0 0 0 0
2840950000  0.286180736 -0.749359040  0.235472144  0.091896816 0 0 0 0
2875900000  0.292662752 -0.779122048  0.195337712  0.054167292 0 0 0 0
2910850000  0.311170592 -0.812815424  0.163530656  0.037653600 0 0 0 0
2945800000  0.287116000 -0.847563456  0.138820048  0.022939642 0 0 0 0
2980750000  0.260332848 -0.863959552  0.106842224  0.025702484 0 0 0 0
3015700000  0.232067744 -0.879145088  0.070022288  0.045146136 0 0 0 0
3050650000  0.201767136 -0.856410688  0.074609016  0.108794784 0 0 0 0
3085600000  0.191206736 -0.809576960  0.164225024  0.125760064 0 0 0 0
3120550000  0.232314000 -0.765999232  0.224574384  0.055735640 0 0 0 0
3155500000  0.303341344 -0.778140288  0.210955744 -0.003817112 0 0 0 0
3190450000  0.323826560 -0.799874112  0.189919840 -0.029568600 0 0 0 0
3225400000  0.320442976 -0.831448448  0.182241328 -0.047737740 0 0 0 0
3260350000  0.323597248 -0.850982080  0.185080496 -0.067362944 0 0 0 0
3295300000  0.306094560 -0.865119424  0.182497312 -0.108344768 0 0 0 0
3330250000  0.306220480 -0.863146560  0.157407728 -0.150660976 0 0 0 0
3365200000  0.301814976 -0.861564864  0.103013976 -0.170490336 0 0 0 0
3400150000  0.294548032 -0.852782272  0.070432792 -0.150841568 0 0 0 0
3435100000  0.274538112 -0.867079360  0.053693532 -0.132607816 0 0 0 0
3470050000  0.248902528 -0.842180160  0.052976212 -0.124199168 0 0 0 0
3505000000  0.232237152 -0.838257664  0.056268816 -0.131152376 0 0 0 0
3539950000  0.239708240 -0.843028544  0.053441740 -0.152642784 0 0 0 0
3574900000  0.241000560 -0.818125952  0.035277600 -0.183255856 0 0 0 0
3609850000  0.249776992 -0.778259520 -0.009236005 -0.208535632 0 0 0 0
3644800000  0.258023232 -0.738063936 -0.072632608 -0.205520400 0 0 0 0
3679750000  0.285861120 -0.687487360 -0.126012696 -0.166155120 0 0 0 0
3714700000  0.325924288 -0.661920768 -0.147116576 -0.113124856 0 0 0 0
3749650000  0.368546368 -0.655525760 -0.144583616 -0.068298552 0 0 0 0
3784600000  0.419419680 -0.671961344 -0.132315752 -0.041000452 0 0 0 0
3819550000  0.480875872 -0.676672704 -0.121717736 -0.024561544 0 0 0 0
3854500000  0.519527552 -0.704103104 -0.114852488 -0.013318634 0 0 0 0
3889450000  0.519475520 -0.723188160 -0.109797904  0.000214815 0 0 0 0
3924400000  0.523510528 -0.743901952 -0.104358856  0.014242868 0 0 0 0
3959350000  0.537090688 -0.759351808 -0.094818824  0.032357236 0 0 0 0
3994300000  0.534883136 -0.760879232 -0.076267136  0.047505448 0 0 0 0
4029250000  0.543081408 -0.790348992 -0.057194612  0.048704064 0 0 0 0
4064200000  0.569777344 -0.821016960 -0.044926552  0.043599444 0 0 0 0
4099150000  0.548700480 -0.797310848 -0.039976264  0.037009480 0 0 0 0
4134100000  0.576987200 -0.773023360 -0.038303892  0.033529834 0 0 0 0
4169050000  0.561070080 -0.805354624 -0.038259368  0.032748152 0 0 0 0
4204000000  0.542696192 -0.813721024 -0.038574148  0.034340072 0 0 0 0
4238950000  0.566556416 -0.809888704 -0.037018360  0.039387932 0 0 0 0
4273900000  0.554899392 -0.810969472 -0.030718864  0.046326744 0 0 0 0
4308850000  0.575875072 -0.811877952 -0.021847578  0.047594208 0 0 0 0
4343800000  0.603497792 -0.809786304 -0.015517360  0.044188884 0 0 0 0
4378750000  0.584811648 -0.808943168 -0.013567445  0.041237392 0 0 0 0
4413700000  0.563099584 -0.785162176 -0.012509979  0.039764848 0 0 0 0
4448650000  0.566514496 -0.773481600 -0.013079716  0.040757744 0 0 0 0
4483600000  0.558465344 -0.784819904 -0.012138680  0.044420968 0 0 0 0
4518550000  0.556169920 -0.794684288 -0.009115886  0.050409852 0 0 0 0
4553500000  0.561017472 -0.782467520 -0.003007830  0.056893752 0 0 0 0
4588450000  0.553762368 -0.761700608  0.008878987  0.058654120 0 0 0 0
4623400000  0.569944576 -0.723876160  0.018362214  0.055099528 0 0 0 0
4658350000  0.568619584 -0.704672960  0.025336986  0.051329896 0 0 0 0
4693300000  0.554356800 -0.686217984  0.033484996  0.047918060 0 0 0 0
4728250000  0.551225216 -0.631224896  0.042050644  0.041929980 0 0 0 0
4763200000  0.599904768 -0.609525376  0.049786500  0.032695004 0 0 0 0
4798150000  0.631725504 -0.606336064  0.054323156  0.021564610 0 0 0 0
4833100000  0.673997760 -0.604195008  0.054774108  0.009750074 0 0 0 0
4868050000  0.718305280 -0.598308032  0.049968876 -0.000622057 0 0 0 0
4903000000  0.729398144 -0.610478080  0.042764416 -0.005359543 0 0 0 0
4937950000  0.748395712 -0.616109440  0.038727420 -0.008756744 0 0 0 0
4972900000  0.732180992 -0.631866240  0.033591416 -0.012564356 0 0 0 0
5007850000  0.746224960 -0.649220096  0.029339330 -0.014993294 0 0 0 0
5042800000  0.717486848 -0.657364608  0.025440256 -0.017611380 0 0 0 0
5077750000  0.772654208 -0.623568064  0.023332744 -0.018613366 0 0 0 0
5112700000  0.777376320 -0.638774848  0.021268280 -0.019891992 0 0 0 0
5147650000  0.777755392 -0.628447680  0.019040430 -0.020538740 0 0 0 0
5182600000  0.779920960 -0.612156160  0.015706361 -0.019473274 0 0 0 0
5217550000  0.779635008 -0.602278144  0.012896539 -0.017417088 0 0 0 0
5252500000  0.786321152 -0.597318784  0.011993593 -0.014724396 0 0 0 0
5287450000  0.806794880 -0.605027264  0.010994089 -0.013200671 0 0 0 0
5322400000  0.796163648 -0.642011520  0.010044112 -0.013583833 0 0 0 0
5357350000  0.774747136 -0.614446528  0.008317638 -0.014693886 0 0 0 0
5392300000  0.822690304 -0.584922496  0.006484424 -0.016886666 0 0 0 0
5427250000  0.810593024 -0.595018368  0.004298600 -0.019055566 0 0 0 0
5462200000  0.809906368 -0.597696192  0.001738639 -0.020557850 0 0 0 0
5497150000  0.802187584 -0.583838528 -0.000181649 -0.020701266 0 0 0 0
5532100000  0.790894528 -0.570684096 -0.000888660 -0.020067720 0 0 0 0
5567050000  0.809287488 -0.569655808  0.000103949 -0.019794336 0 0 0 0
5602000000  0.823367744 -0.563632960  0.001070981 -0.020106314 0 0 0 0
5636950000  0.825527872 -0.576253696  0.000473211 -0.021442814 0 0 0 0
5671900000  0.782833536 -0.554597056 -0.001658665 -0.022585704 0 0 0 0
5706850000  0.818973888 -0.528151328 -0.005479750 -0.024353490 0 0 0 0
5741800000  0.818712000 -0.516120256 -0.012111032 -0.024648898 0 0 0 0
5776750000  0.804834304 -0.509107040 -0.018051108 -0.021949792 0 0 0 0
5811700000  0.804171456 -0.479653216 -0.021806240 -0.017620428 0 0 0 0
5846650000  0.781642048 -0.443853888 -0.022713544 -0.013260338 0 0 0 0
5881600000  0.816482560 -0.415201440 -0.022371076 -0.009972294 0 0 0 0
5916550000  0.831140608 -0.400699584 -0.022287698 -0.007106235 0 0 0 0
5951500000  0.834986624 -0.417904032 -0.023217628 -0.003820917 0 0 0 0
5986450000  0.846813312 -0.367526048 -0.023914356  0.000283667 0 0 0 0
6021400000  0.893475264 -0.361919648 -0.024189902  0.004700724 0 0 0 0
6056350000  0.902782464 -0.343001024 -0.022814014  0.009733079 0 0 0 0
6091300000  0.908029248 -0.335842464 -0.018876532  0.012866039 0 0 0 0
6126250000  0.912827520 -0.328906752 -0.014306099  0.012226525 0 0 0 0
6161200000  0.901799296 -0.341868352 -0.010664458  0.009697831 0 0 0 0
6196150000  0.914802944 -0.350103296 -0.008556711  0.007455454 0 0 0 0
6231100000  0.943409664 -0.326449440 -0.007432280  0.006434724 0 0 0 0
6266050000  0.955099584 -0.357142656 -0.006467540  0.006672547 0 0 0 0
6301000000  0.952281856 -0.301647488 -0.006126176  0.008303545 0 0 0 0
6335950000  0.997781440 -0.307531552 -0.006448088  0.014885745 0 0 0 0
6370900000  0.959899456 -0.303479104 -0.003321764  0.012787681 0 0 0 0
6405850000  0.982124544 -0.267699216 -0.002049495  0.013294034 0 0 0 0
6440800000  0.930508800 -0.302638048  0.000576046  0.012241971 0 0 0 0
6475750000  0.953379776 -0.286617248  0.001528293  0.008319356 0 0 0 0
6510700000  0.946796800 -0.299740992  0.001382606  0.009374675 0 0 0 0
6545650000  0.990865920 -0.304192384  0.000234863  0.010775902 0 0 0 0
6580600000  0.959454272 -0.276878272 -0.001740097  0.012140708 0 0 0 0
6615550000  0.981471360 -0.245832144 -0.002702658  0.010237984 0 0 0 0
6650500000  0.983964352 -0.249207376  0.000510249  0.013402916 0 0 0 0
6685450000  0.957354496 -0.241785840  0.002144802  0.010432624 0 0 0 0
6720400000  0.954508992 -0.235089072  0.006566993  0.009196565 0 0 0 0
6755350000  0.923233280 -0.223851952  0.007502639  0.010859790 0 0 0 0
6790300000  0.942482880 -0.271821248  0.007724622  0.006067869 0 0 0 0
6825250000  0.947719360 -0.168529024  0.004898503  0.006729385 0 0 0 0
6860200000  0.975926208 -0.260498560  0.005224929  0.008690011 0 0 0 0
6895150000  0.927676224 -0.158811488  0.005404896  0.008265214 0 0 0 0
6930100000  0.934041600 -0.173789344  0.009260596  0.012220969 0 0 0 0
6965050000  0.964859776 -0.163027968  0.012141609  0.006109242 0 0 0 0
7000000000  0.919807488 -0.157040752  0.015398328  0.001535476 0 0 0 0
