!File created by NanoVNA
# Hz S RI R 50
  10000000 -0.284143040  0.012286916
  44950000 -0.266193664  0.062934116
  79900000 -0.238843472  0.105028448
 114850000 -0.198777120  0.147171312
 149800000 -0.147684064  0.172544768
 184750000 -0.086656880  0.183875184
 219700000 -0.021312936  0.179139680
 254650000  0.041648208  0.160400688
 289600000  0.098509104  0.130520600
 324550000  0.148251584  0.091733720
 359500000  0.192465296  0.044099404
 394450000  0.232311088 -0.013722630
 429400000  0.263948384 -0.084039400
 464350000  0.283446912 -0.162430288
 499300000  0.288203200 -0.242152400
 534250000  0.278368032 -0.315632800
 569200000  0.257402368 -0.380419264
 604150000  0.226458608 -0.435803968
 639100000  0.186721616 -0.484167680
 674050000  0.138602480 -0.528387552
 709000000  0.086197528 -0.564626560
 743950000  0.033383918 -0.595352640
 778900000 -0.017219014 -0.616186496
 813850000 -0.061477112 -0.627431680
 848800000 -0.106408112 -0.627456000
 883750000 -0.145467248 -0.616972352
 918700000 -0.189337904 -0.595992640
 953650000 -0.228344496 -0.566040832
 988600000 -0.266113104 -0.531552064
1023550000 -0.293405760 -0.495645728
1058500000 -0.310993184 -0.459022400
1093450000 -0.315797472 -0.419479296
1128400000 -0.304488160 -0.372063712
1163350000 -0.276457056 -0.318398592
1198300000 -0.228652224 -0.261109920
1233250000 -0.160449744 -0.215306304
1268200000 -0.084239544 -0.192355408
1303150000 -0.009129336 -0.196794480
1338100000  0.057995632 -0.225833584
1373050000  0.117080584 -0.274384000
1408000000  0.169200512 -0.338824256
1442950000  0.212442048 -0.415023712
1477900000  0.239195280 -0.492761472
1512850000  0.246433872 -0.564187136
1547800000  0.238701104 -0.622534016
1582750000  0.214949952 -0.664708800
1617700000  0.178782048 -0.704216832
1652650000  0.137253424 -0.732698496
1687600000  0.094212536 -0.762334912
1722550000  0.062765392 -0.787272000
1757500000  0.029029394 -0.804510144
1792450000  0.011606485 -0.821053888
1827400000 -0.001883045 -0.824893184
1862350000 -0.020794776 -0.821822912
1897300000 -0.040072076 -0.812151296
1932250000 -0.066378064 -0.792084352
1967200000 -0.106793528 -0.778293120
2002150000 -0.137025104 -0.754422976
2037100000 -0.167038416 -0.736323008
2072050000 -0.185945088 -0.715954240
2107000000 -0.183108928 -0.685201536
2141950000 -0.157268192 -0.650221312
2176900000 -0.118895480 -0.603299584
2211850000 -0.071195448 -0.556211776
2246800000 -0.017207378 -0.519483936
2281750000  0.025593090 -0.498581184
2316700000  0.064104244 -0.499621888
2351650000  0.093822480 -0.519485344
2386600000  0.128365488 -0.560915264
2421550000  0.161154576 -0.619487616
2456500000  0.196740976 -0.672118336
2491450000  0.231276448 -0.717575360
2526400000  0.258067584 -0.744838976
2561350000  0.274589600 -0.752626624
2596300000  0.264037216 -0.761627712
2631250000  0.228994608 -0.771781760
2666200000  0.180659984 -0.795562240
2701150000  0.132342040 -0.820049280
2736100000  0.106355232 -0.842937152
2771050000  0.120920632 -0.859549184
2806000000  0.150999760 -0.867755648
2840950000  0.179512320 -0.866778432
2875900000  0.204950528 -0.849345408
2910850000  0.216789488 -0.840348544
2945800000  0.169111664 -0.830800704
2980750000  0.098681240 -0.819697664
3015700000  0.044490308 -0.816439616
3050650000  0.024027292 -0.810050816
3085600000  0.038058448 -0.825203328
3120550000  0.064947708 -0.820902592
3155500000  0.133265600 -0.807454720
3190450000  0.204851568 -0.780693312
3225400000  0.238654448 -0.758194560
3260350000  0.234480768 -0.734388928
3295300000  0.191351984 -0.713058624
3330250000  0.141839360 -0.698687232
3365200000  0.106477856 -0.705296128
3400150000  0.109797096 -0.726489856
3435100000  0.137311024 -0.767992704
3470050000  0.190815392 -0.775623424
3505000000  0.291392064 -0.785507904
3539950000  0.373072800 -0.790784512
3574900000  0.403392000 -0.771898048
3609850000  0.367295584 -0.746403392
3644800000  0.259109024 -0.734341888
3679750000  0.145347360 -0.718224960
3714700000  0.058641264 -0.732258048
3749650000  0.026528450 -0.763103296
3784600000  0.096839880 -0.811824768
3819550000  0.238814160 -0.841557056
3854500000  0.376079200 -0.840379904
3889450000  0.459002400 -0.792794048
3924400000  0.438659776 -0.747894272
3959350000  0.305820928 -0.673200448
3994300000  0.127219768 -0.549743744
4029250000 -0.027148674 -0.479843424
4064200000 -0.107246808 -0.482163904
4099150000 -0.088779392 -0.541201024
4134100000  0.041676460 -0.641740352
4169050000  0.212237392 -0.730201728
4204000000  0.409651904 -0.769128896
4238950000  0.545232704 -0.752063296
4273900000  0.538673536 -0.582928512
4308850000  0.499974656 -0.330086624
4343800000  0.431472800 -0.117134672
4378750000  0.336962080  0.005536034
4413700000  0.256808336  0.017365668
4448650000  0.241409120 -0.065519104
4483600000  0.324666368 -0.244200448
4518550000  0.467940064 -0.499056640
4553500000  0.585514176 -0.682523392
4588450000  0.659652032 -0.689237568
4623400000  0.741748224 -0.541753856
4658350000  0.786118720 -0.361271424
4693300000  0.774819584 -0.208121408
4728250000  0.733765504 -0.099495640
4763200000  0.700318464 -0.086645056
4798150000  0.688049408 -0.198820160
4833100000  0.693165376 -0.389496224
4868050000  0.700579264 -0.573474048
4903000000  0.713901312 -0.655203968
4937950000  0.771924032 -0.626497280
4972900000  0.811419456 -0.534725472
5007850000  0.856961152 -0.410579136
5042800000  0.856480064 -0.285352416
5077750000  0.842663424 -0.213967744
5112700000  0.819649856 -0.245223792
5147650000  0.788544000 -0.333864928
5182600000  0.761136000 -0.453980704
5217550000  0.741699968 -0.545858944
5252500000  0.773878464 -0.561730432
5287450000  0.818964352 -0.534598528
5322400000  0.870975616 -0.454150080
5357350000  0.884965248 -0.337188768
5392300000  0.903159424 -0.245130736
5427250000  0.886758656 -0.224871024
5462200000  0.867958528 -0.271140288
5497150000  0.833323840 -0.370225600
5532100000  0.808584448 -0.450060544
5567050000  0.818641600 -0.506814784
5602000000  0.850828096 -0.501232672
5636950000  0.894970368 -0.454110400
5671900000  0.894734272 -0.354101440
5706850000  0.929464064 -0.250547376
5741800000  0.929598464 -0.207958112
5776750000  0.910061376 -0.215138752
5811700000  0.887040704 -0.255136256
5846650000  0.847698688 -0.331499360
5881600000  0.863104320 -0.382426048
5916550000  0.868102080 -0.424738496
5951500000  0.898599488 -0.398618752
5986450000  0.907252736 -0.319745632
6021400000  0.948022720 -0.215041168
6056350000  0.946213440 -0.144482048
6091300000  0.929479040 -0.113571360
6126250000  0.913427392 -0.130458888
6161200000  0.899716096 -0.186931248
6196150000  0.893176832 -0.264917136
6231100000  0.910284608 -0.322163008
6266050000  0.939713088 -0.311506752
6301000000  0.960396800 -0.252682592
6335950000  1.013778687 -0.168321632
6370900000  0.989975232 -0.101410832
6405850000  0.977870016 -0.039062096
6440800000  0.951513024 -0.047611892
6475750000  0.965687872 -0.086414480
6510700000  0.946173568 -0.178385728
6545650000  0.952166720 -0.232206080
6580600000  0.954401600 -0.243295520
6615550000  0.987019392 -0.194148304
6650500000  0.996288960 -0.144485888
6685450000  0.998230208 -0.074006088
6720400000  0.941733568 -0.021747520
6755350000  0.961587200 -0.020527168
6790300000  0.954124480 -0.031281632
6825250000  0.914612544  0.005775976
6860200000  0.955338368 -0.122397656
6895150000  0.914548672 -0.128454464
6930100000  0.961220608 -0.126601104
6965050000  0.997356608 -0.103324656
7000000000  0.978707712 -0.038624780
