!File created by NanoVNA
# Hz S RI R 50
  10000000 -0.284120128  0.012248002  0.624640704 -0.033337526 0 0 0 0
  44950000 -0.266299248  0.062809096  0.619013248 -0.117590600 0 0 0 0
  79900000 -0.239055488  0.105126272  0.601052416 -0.209331376 0 0 0 0
 114850000 -0.198737952  0.147009104  0.562125440 -0.308003616 0 0 0 0
 149800000 -0.147968720  0.172571456  0.498032640 -0.387941536 0 0 0 0
 184750000 -0.086569528  0.183821184  0.429099840 -0.446139872 0 0 0 0
 219700000 -0.021479642  0.179171280  0.362705856 -0.495755104 0 0 0 0
 254650000  0.041946384  0.160439984  0.289281824 -0.541684352 0 0 0 0
 289600000  0.098409328  0.130569440  0.208030256 -0.579208896 0 0 0 0
 324550000  0.148311024  0.091695264  0.116869272 -0.599788288 0 0 0 0
 359500000  0.192398496  0.043975252  0.026010944 -0.602447168 0 0 0 0
 394450000  0.232383744 -0.014213459 -0.057036184 -0.591767168 0 0 0 0
 429400000  0.263838320 -0.084544944 -0.139016736 -0.573651328 0 0 0 0
 464350000  0.283288704 -0.162177472 -0.220903648 -0.543764160 0 0 0 0
 499300000  0.288029792 -0.242018624 -0.297706688 -0.495446272 0 0 0 0
 534250000  0.278039616 -0.315767296 -0.356653504 -0.433210464 0 0 0 0
 569200000  0.256934608 -0.380821408 -0.399803520 -0.371200032 0 0 0 0
 604150000  0.226000272 -0.435849056 -0.434181888 -0.314047648 0 0 0 0
 639100000  0.186449344 -0.484199584 -0.468248608 -0.256225136 0 0 0 0
 674050000  0.138515232 -0.528343328 -0.498545120 -0.183873344 0 0 0 0
 709000000  0.086616600 -0.564593856 -0.508128096 -0.103916888 0 0 0 0
 743950000  0.033006740 -0.595527232 -0.495763840 -0.030830522 0 0 0 0
 778900000 -0.015716775 -0.616554496 -0.475307616  0.021111208 0 0 0 0
 813850000 -0.062182812 -0.627520000 -0.462439616  0.060083760 0 0 0 0
 848800000 -0.106256752 -0.627027136 -0.461757856  0.102270416 0 0 0 0
 883750000 -0.146245056 -0.617181888 -0.463530688  0.158662064 0 0 0 0
 918700000 -0.189712192 -0.595340352 -0.446691904  0.234092128 0 0 0 0
 953650000 -0.228550624 -0.566080192 -0.403457024  0.302352384 0 0 0 0
 988600000 -0.266435808 -0.531597376 -0.346783648  0.348963104 0 0 0 0
1023550000 -0.293095872 -0.495974080 -0.296624928  0.376536640 0 0 0 0
1058500000 -0.311075680 -0.458731968 -0.256432144  0.401321056 0 0 0 0
1093450000 -0.316476832 -0.418867616 -0.222745152  0.437164672 0 0 0 0
1128400000 -0.304896448 -0.371567872 -0.174786128  0.486196640 0 0 0 0
1163350000 -0.275761920 -0.318612192 -0.099437448  0.532163616 0 0 0 0
1198300000 -0.228750928 -0.260313728 -0.002940957  0.552726272 0 0 0 0
1233250000 -0.160626128 -0.215083040  0.091664408  0.549618752 0 0 0 0
1268200000 -0.084254416 -0.192240768  0.188253520  0.525981728 0 0 0 0
1303150000 -0.008862785 -0.196954432  0.280478912  0.477386464 0 0 0 0
1338100000  0.058318508 -0.225827152  0.350169248  0.410222624 0 0 0 0
1373050000  0.117506240 -0.274371520  0.400104224  0.334083424 0 0 0 0
1408000000  0.169261008 -0.338909792  0.434090560  0.254252400 0 0 0 0
1442950000  0.213087296 -0.415075424  0.451507360  0.174967040 0 0 0 0
1477900000  0.238775200 -0.492658624  0.453321760  0.093002064 0 0 0 0
1512850000  0.249372416 -0.563504256  0.436619008  0.023289208 0 0 0 0
1547800000  0.238860368 -0.622380608  0.409174080 -0.034462612 0 0 0 0
1582750000  0.213798256 -0.665521920  0.378859328 -0.080398032 0 0 0 0
1617700000  0.178352992 -0.704016064  0.350880896 -0.116373736 0 0 0 0
1652650000  0.136232256 -0.733547968  0.324392928 -0.151419072 0 0 0 0
1687600000  0.097030216 -0.761293312  0.297108576 -0.174979232 0 0 0 0
1722550000  0.059246016 -0.787066816  0.260174752 -0.203302112 0 0 0 0
1757500000  0.029347602 -0.803223744  0.222283312 -0.218863552 0 0 0 0
1792450000  0.013123666 -0.820798336  0.192129872 -0.223244480 0 0 0 0
1827400000 -0.002514544 -0.824916736  0.174044112 -0.228503760 0 0 0 0
1862350000 -0.017992724 -0.821901888  0.161840064 -0.240726336 0 0 0 0
1897300000 -0.043207080 -0.811765440  0.142267536 -0.262750624 0 0 0 0
1932250000 -0.065731080 -0.791280000  0.116225160 -0.286536224 0 0 0 0
1967200000 -0.106891096 -0.778088384  0.075531384 -0.307037760 0 0 0 0
2002150000 -0.135830768 -0.754263680  0.032557234 -0.312632448 0 0 0 0
2037100000 -0.170817264 -0.735022464 -0.004471496 -0.311708736 0 0 0 0
2072050000 -0.187418272 -0.715360448 -0.036895644 -0.311095648 0 0 0 0
2107000000 -0.182534704 -0.685457920 -0.073413776 -0.314756160 0 0 0 0
2141950000 -0.159103472 -0.650753792 -0.120771272 -0.317368096 0 0 0 0
2176900000 -0.118550560 -0.604454848 -0.176949984 -0.306507744 0 0 0 0
2211850000 -0.068802256 -0.557371904 -0.234481168 -0.276506944 0 0 0 0
2246800000 -0.018358580 -0.518987552 -0.284585312 -0.230017328 0 0 0 0
2281750000  0.029734414 -0.499568832 -0.319208800 -0.172601952 0 0 0 0
2316700000  0.062803664 -0.499063168 -0.339524768 -0.104415488 0 0 0 0
2351650000  0.093488632 -0.519946144 -0.340920064 -0.040407508 0 0 0 0
2386600000  0.124505424 -0.562081408 -0.328927616  0.021779526 0 0 0 0
2421550000  0.163844928 -0.618378048 -0.303954944  0.078994296 0 0 0 0
2456500000  0.197841552 -0.672158272 -0.262095808  0.124595216 0 0 0 0
2491450000  0.227155744 -0.718457664 -0.211168608  0.149495344 0 0 0 0
2526400000  0.257456576 -0.744787904 -0.170309184  0.151385984 0 0 0 0
2561350000  0.273730944 -0.754032832 -0.145348640  0.147621664 0 0 0 0
2596300000  0.261801840 -0.761770560 -0.135618304  0.143450864 0 0 0 0
2631250000  0.225845360 -0.775983936 -0.125436024  0.151939376 0 0 0 0
2666200000  0.181612064 -0.793006464 -0.109908680  0.169163248 0 0 0 0
2701150000  0.128517840 -0.819861568 -0.085998880  0.188903280 0 0 0 0
2736100000  0.108392920 -0.842750272 -0.044275736  0.194196464 0 0 0 0
2771050000  0.116580656 -0.861296576 -0.005785078  0.176835232 0 0 0 0
2806000000  0.150747120 -0.867426048  0.005153673  0.150540960 0 0 0 0
2840950000  0.189981136 -0.867629120  0.002717488  0.134355216 0 0 0 0
2875900000  0.213323840 -0.848264896 -0.003145568  0.133949880 0 0 0 0
2910850000  0.226498544 -0.837081536 -0.003796796  0.145432768 0 0 0 0
2945800000  0.166750784 -0.828690048  0.010813525  0.164377712 0 0 0 0
2980750000  0.103824120 -0.818209536  0.041259244  0.181437312 0 0 0 0
3015700000  0.042817884 -0.816866624  0.092404528  0.174445632 0 0 0 0
3050650000  0.024889648 -0.809930176  0.125948160  0.135607232 0 0 0 0
3085600000  0.034173800 -0.823065344  0.125603440  0.097209744 0 0 0 0
3120550000  0.059973636 -0.821429120  0.114754744  0.076986352 0 0 0 0
3155500000  0.146383664 -0.809541184  0.100443936  0.083669488 0 0 0 0
3190450000  0.214881600 -0.779625984  0.106070232  0.089135304 0 0 0 0
3225400000  0.232622048 -0.760379712  0.128794520  0.087873984 0 0 0 0
3260350000  0.243961872 -0.727844864  0.164852016  0.069551576 0 0 0 0
3295300000  0.191587904 -0.713485056  0.196650736  0.029032376 0 0 0 0
3330250000  0.142132928 -0.698095104  0.198586848 -0.030366478 0 0 0 0
3365200000  0.105691744 -0.705569408  0.161253728 -0.076293216 0 0 0 0
3400150000  0.104809840 -0.724424640  0.122102136 -0.078210440 0 0 0 0
3435100000  0.137504496 -0.768439168  0.096226064 -0.071901944 0 0 0 0
3470050000  0.193525424 -0.776123840  0.087220160 -0.064384120 0 0 0 0
3505000000  0.278381824 -0.786050816  0.088793520 -0.062939080 0 0 0 0
3539950000  0.371378496 -0.790670272  0.091542984 -0.072399208 0 0 0 0
3574900000  0.403292736 -0.771622976  0.091484544 -0.091639376 0 0 0 0
3609850000  0.366935872 -0.746539456  0.075852992 -0.117862112 0 0 0 0
3644800000  0.257475888 -0.734511744  0.041012200 -0.132629368 0 0 0 0
3679750000  0.144289568 -0.717814080  0.006334990 -0.120687688 0 0 0 0
3714700000  0.063372524 -0.733362816 -0.009237353 -0.097864688 0 0 0 0
3749650000  0.028970490 -0.764987520 -0.011472950 -0.081449520 0 0 0 0
3784600000  0.107413168 -0.813539072 -0.006093425 -0.075010800 0 0 0 0
3819550000  0.239906224 -0.840336768 -0.004229515 -0.076386328 0 0 0 0
3854500000  0.385673344 -0.835328896 -0.005267361 -0.083241152 0 0 0 0
3889450000  0.458165632 -0.791200640 -0.013067320 -0.092209120 0 0 0 0
3924400000  0.439719808 -0.748672832 -0.033251598 -0.098882072 0 0 0 0
3959350000  0.306426112 -0.673992768 -0.063196400 -0.085762896 0 0 0 0
3994300000  0.131037056 -0.552699456 -0.074535248 -0.055319184 0 0 0 0
4029250000 -0.029827426 -0.479079200 -0.065490008 -0.035841028 0 0 0 0
4064200000 -0.098142768 -0.486765248 -0.054902420 -0.029835882 0 0 0 0
4099150000 -0.081597936 -0.542227776 -0.049192344 -0.030341888 0 0 0 0
4134100000  0.044101376 -0.641885696 -0.049027460 -0.032675852 0 0 0 0
4169050000  0.216771920 -0.729119808 -0.053585296 -0.035786636 0 0 0 0
4204000000  0.411092448 -0.768543616 -0.065250868 -0.036296676 0 0 0 0
4238950000  0.545353856 -0.751189248 -0.083006992 -0.021801214 0 0 0 0
4273900000  0.537842304 -0.583625856 -0.082007816  0.006304240 0 0 0 0
4308850000  0.496240896 -0.331635776 -0.063410512  0.018270086 0 0 0 0
4343800000  0.431454240 -0.115912520 -0.051803416  0.015559646 0 0 0 0
4378750000  0.332261632  0.002880202 -0.048147140  0.011542621 0 0 0 0
4413700000  0.255272000  0.017859432 -0.049455444  0.009795466 0 0 0 0
4448650000  0.239348144 -0.067915000 -0.054005804  0.010364458 0 0 0 0
4483600000  0.324438240 -0.239604960 -0.060260332  0.015823845 0 0 0 0
4518550000  0.471156672 -0.491364160 -0.065601016  0.029384864 0 0 0 0
4553500000  0.585119744 -0.682356160 -0.059341168  0.049792700 0 0 0 0
4588450000  0.657028288 -0.691103552 -0.041743152  0.058147296 0 0 0 0
4623400000  0.738424256 -0.544764096 -0.028415180  0.053964252 0 0 0 0
4658350000  0.788567680 -0.357232224 -0.023996364  0.048747888 0 0 0 0
4693300000  0.778779776 -0.199299664 -0.022563706  0.047378852 0 0 0 0
4728250000  0.731613056 -0.104925304 -0.020865602  0.049328396 0 0 0 0
4763200000  0.697999680 -0.087515880 -0.018013942  0.053071144 0 0 0 0
4798150000  0.688370944 -0.192467488 -0.014701925  0.059313736 0 0 0 0
4833100000  0.694024768 -0.383917216 -0.004566897  0.067663576 0 0 0 0
4868050000  0.700168064 -0.573433600  0.012256451  0.068789504 0 0 0 0
4903000000  0.711759488 -0.656129600  0.023623894  0.058946016 0 0 0 0
4937950000  0.767968064 -0.628668672  0.026216022  0.048971108 0 0 0 0
4972900000  0.813912384 -0.533157952  0.025748024  0.044017356 0 0 0 0
5007850000  0.858757056 -0.407573984  0.027730010  0.041524616 0 0 0 0
5042800000  0.852587008 -0.292864576  0.031353418  0.039521640 0 0 0 0
5077750000  0.840834816 -0.219391456  0.035938172  0.037543080 0 0 0 0
5112700000  0.820561600 -0.244895392  0.043435692  0.034947456 0 0 0 0
5147650000  0.789083392 -0.335720288  0.052114992  0.028681568 0 0 0 0
5182600000  0.760223104 -0.456888992  0.055947120  0.017627040 0 0 0 0
5217550000  0.743295680 -0.543755584  0.052326060  0.006904067 0 0 0 0
5252500000  0.771358208 -0.562037440  0.046698804  0.004310550 0 0 0 0
5287450000  0.824632512 -0.530386208  0.043278856  0.002770636 0 0 0 0
5322400000  0.876480704 -0.447328256  0.042309712  0.002229027 0 0 0 0
5357350000  0.884979264 -0.337393920  0.042164692 -0.000969984 0 0 0 0
5392300000  0.904682688 -0.249239664  0.042671196 -0.006364534 0 0 0 0
5427250000  0.887669440 -0.229734928  0.043487660 -0.011865112 0 0 0 0
5462200000  0.867039680 -0.274689856  0.042209108 -0.020989246 0 0 0 0
5497150000  0.833515264 -0.370122880  0.035161076 -0.030444448 0 0 0 0
5532100000  0.828398208 -0.436361536  0.029784290 -0.031424848 0 0 0 0
5567050000  0.812394944 -0.511862400  0.025015358 -0.031323116 0 0 0 0
5602000000  0.840467968 -0.510907008  0.024382112 -0.029741080 0 0 0 0
5636950000  0.894743232 -0.456227488  0.024774256 -0.030059434 0 0 0 0
5671900000  0.893584704 -0.360710592  0.023634294 -0.031848178 0 0 0 0
5706850000  0.932113024 -0.262134912  0.022442392 -0.035455464 0 0 0 0
5741800000  0.927014656 -0.198644448  0.017667572 -0.041253544 0 0 0 0
5776750000  0.909424640 -0.211443872  0.009179755 -0.045983008 0 0 0 0
5811700000  0.885683328 -0.258404608 -0.000415290 -0.045897928 0 0 0 0
5846650000  0.836435072 -0.343082016 -0.006666303 -0.042017960 0 0 0 0
5881600000  0.856681984 -0.392716544 -0.008513765 -0.038065076 0 0 0 0
5916550000  0.874874048 -0.412668640 -0.008965326 -0.036441676 0 0 0 0
5951500000  0.894723328 -0.412365376 -0.010755122 -0.036856400 0 0 0 0
5986450000  0.908986112 -0.317552672 -0.014722507 -0.036913504 0 0 0 0
6021400000  0.949539392 -0.215434864 -0.020739330 -0.037268456 0 0 0 0
6056350000  0.945296064 -0.141438208 -0.030462796 -0.035066720 0 0 0 0
6091300000  0.929710592 -0.114424272 -0.039012944 -0.028421664 0 0 0 0
6126250000  0.915954560 -0.126095384 -0.041019996 -0.020473294 0 0 0 0
6161200000  0.894458368 -0.197168128 -0.038691060 -0.011811582 0 0 0 0
6196150000  0.890768704 -0.271692992 -0.033458360 -0.009443849 0 0 0 0
6231100000  0.912282240 -0.314388768 -0.030521348 -0.008179544 0 0 0 0
6266050000  0.941566016 -0.309203712 -0.029696974 -0.007287155 0 0 0 0
6301000000  0.959321280 -0.246780352 -0.030354358 -0.004324800 0 0 0 0
6335950000  1.003885865 -0.173601168 -0.036385900  0.001589187 0 0 0 0
6370900000  0.983513024 -0.099850808 -0.036798956  0.009221827 0 0 0 0
6405850000  0.981313280 -0.024515102 -0.031264090  0.015670600 0 0 0 0
6440800000  0.948825152 -0.048134264 -0.022045412  0.023478008 0 0 0 0
6475750000  0.941111232 -0.079308864 -0.018504280  0.022170470 0 0 0 0
6510700000  0.953519872 -0.182116336 -0.015339492  0.020724508 0 0 0 0
6545650000  0.954534528 -0.223840112 -0.015808031  0.015478777 0 0 0 0
6580600000  0.966802688 -0.254406416 -0.017581906  0.016568259 0 0 0 0
6615550000  0.992559040 -0.218693840 -0.017888350  0.021602750 0 0 0 0
6650500000  0.994864704 -0.141576176 -0.020132184  0.024010612 0 0 0 0
6685450000  0.988269632 -0.070957048 -0.018314854  0.028752360 0 0 0 0
6720400000  0.952969344 -0.026219500 -0.009500507  0.031775502 0 0 0 0
6755350000  0.961262336 -0.010564789  0.000539521  0.030171740 0 0 0 0
6790300000  0.958295296 -0.061711784  0.000279511  0.025599282 0 0 0 0
6825250000  0.958601472 -0.068871608 -0.000607466  0.023648210 0 0 0 0
6860200000  0.967176256 -0.116422832  0.001421022  0.023022338 0 0 0 0
6895150000  0.916049728 -0.102099800 -0.001980604  0.025402594 0 0 0 0
6930100000  0.948237120 -0.136508768  0.000466056  0.028870134 0 0 0 0
6965050000  0.989647936 -0.094437160  0.006931165  0.032717820 0 0 0 0
7000000000  0.986975552 -0.019013314  0.015307216  0.029829970 0 0 0 0
