!File created by NanoVNA
# Hz S RI R 50
  10000000 -0.290782784  0.016330671  0.627365376 -0.033453852 0 0 0 0
  44950000 -0.272807648  0.054749936  0.621443200 -0.116719328 0 0 0 0
  79900000 -0.248921968  0.091185936  0.604748736 -0.207533152 0 0 0 0
 114850000 -0.213701360  0.129068000  0.567522496 -0.305340000 0 0 0 0
 149800000 -0.168380640  0.151455488  0.505678048 -0.386567040 0 0 0 0
 184750000 -0.112972440  0.161357968  0.437346016 -0.447299168 0 0 0 0
 219700000 -0.053948292  0.156901504  0.369556704 -0.498025280 0 0 0 0
 254650000  0.003413299  0.139804096  0.296062016 -0.543684800 0 0 0 0
 289600000  0.054643604  0.113608808  0.215687888 -0.581440448 0 0 0 0
 324550000  0.100609000  0.079480016  0.126619128 -0.604600384 0 0 0 0
 359500000  0.142374016  0.037328820  0.035496988 -0.610521728 0 0 0 0
 394450000  0.181043936 -0.015013561 -0.050295064 -0.602914048 0 0 0 0
 429400000  0.213720416 -0.079295928 -0.134383456 -0.586350464 0 0 0 0
 464350000  0.235477856 -0.152478192 -0.220367584 -0.556228480 0 0 0 0
 499300000  0.243320640 -0.228019408 -0.298456352 -0.508035968 0 0 0 0
 534250000  0.237340752 -0.299134240 -0.359914112 -0.445934464 0 0 0 0
 569200000  0.219725168 -0.362814464 -0.404769152 -0.383612768 0 0 0 0
 604150000  0.192056192 -0.417221600 -0.442076864 -0.323425920 0 0 0 0
 639100000  0.156458624 -0.465440000 -0.477511648 -0.262735248 0 0 0 0
 674050000  0.112477296 -0.509956672 -0.507559968 -0.188829168 0 0 0 0
 709000000  0.063824332 -0.547177600 -0.516940000 -0.106378032 0 0 0 0
 743950000  0.013238008 -0.579573440 -0.503619552 -0.032701924 0 0 0 0
 778900000 -0.034759444 -0.602822592 -0.482507264  0.020640594 0 0 0 0
 813850000 -0.080082496 -0.615448576 -0.468966880  0.060889324 0 0 0 0
 848800000 -0.121005816 -0.617579968 -0.467164384  0.103608152 0 0 0 0
 883750000 -0.160102304 -0.609404096 -0.467205280  0.160284944 0 0 0 0
 918700000 -0.201998016 -0.590965696 -0.450191392  0.233818800 0 0 0 0
 953650000 -0.241572528 -0.564019200 -0.405859200  0.302222432 0 0 0 0
 988600000 -0.278992608 -0.532777312 -0.348950912  0.347592768 0 0 0 0
1023550000 -0.307174560 -0.499808960 -0.298680928  0.374156160 0 0 0 0
1058500000 -0.324885344 -0.466698464 -0.260827328  0.396831840 0 0 0 0
1093450000 -0.333170240 -0.429999520 -0.229694736  0.430973248 0 0 0 0
1128400000 -0.326315776 -0.384857536 -0.184488944  0.480640320 0 0 0 0
1163350000 -0.303449184 -0.332779904 -0.113124704  0.528703456 0 0 0 0
1198300000 -0.261599808 -0.275266816 -0.019326188  0.553027712 0 0 0 0
1233250000 -0.200024112 -0.225818720  0.074563640  0.553536896 0 0 0 0
1268200000 -0.129396480 -0.196218528  0.171212032  0.534960448 0 0 0 0
1303150000 -0.055950284 -0.193152048  0.265170448  0.492193728 0 0 0 0
1338100000  0.012438525 -0.214495504  0.339332608  0.430202464 0 0 0 0
1373050000  0.075573136 -0.256192688  0.396025792  0.356942464 0 0 0 0
1408000000  0.133870144 -0.315829760  0.436186752  0.278291808 0 0 0 0
1442950000  0.183938272 -0.390596960  0.459859008  0.196147472 0 0 0 0
1477900000  0.218867280 -0.468796704  0.465550880  0.110711544 0 0 0 0
1512850000  0.233423792 -0.542782080  0.451460032  0.036491548 0 0 0 0
1547800000  0.224498448 -0.605331072  0.424417984 -0.025714556 0 0 0 0
1582750000  0.200689616 -0.652237504  0.393822048 -0.076276720 0 0 0 0
1617700000  0.166545360 -0.692814656  0.365559840 -0.112541688 0 0 0 0
1652650000  0.127413168 -0.724402304  0.337062304 -0.150830960 0 0 0 0
1687600000  0.087777368 -0.755283264  0.307162624 -0.176673056 0 0 0 0
1722550000  0.050951368 -0.781266624  0.268881280 -0.205085168 0 0 0 0
1757500000  0.021608004 -0.800637952  0.230326384 -0.220219392 0 0 0 0
1792450000  0.000452024 -0.819355840  0.199496800 -0.224911648 0 0 0 0
1827400000 -0.009924789 -0.823990912  0.179392784 -0.230402496 0 0 0 0
1862350000 -0.030444272 -0.823300608  0.167649456 -0.242605728 0 0 0 0
1897300000 -0.051371952 -0.814398272  0.147932592 -0.264138736 0 0 0 0
1932250000 -0.076334184 -0.795526848  0.122032096 -0.287897696 0 0 0 0
1967200000 -0.115203040 -0.780984640  0.080921576 -0.306920608 0 0 0 0
2002150000 -0.148543968 -0.760857792  0.039229068 -0.313363904 0 0 0 0
2037100000 -0.180222992 -0.746547968  0.005890095 -0.312157664 0 0 0 0
2072050000 -0.198402912 -0.727975360 -0.026372684 -0.312478112 0 0 0 0
2107000000 -0.200076448 -0.702309888 -0.058259256 -0.319229728 0 0 0 0
2141950000 -0.179808128 -0.668803840 -0.105065584 -0.324442144 0 0 0 0
2176900000 -0.144845648 -0.623482496 -0.160470848 -0.318910496 0 0 0 0
2211850000 -0.103038304 -0.574436160 -0.219445936 -0.295118944 0 0 0 0
2246800000 -0.054073300 -0.533825280 -0.272598816 -0.255951792 0 0 0 0
2281750000 -0.015069284 -0.506386944 -0.315550880 -0.200836720 0 0 0 0
2316700000  0.019337568 -0.500102528 -0.344734592 -0.134684000 0 0 0 0
2351650000  0.052981700 -0.509362592 -0.354827104 -0.069812600 0 0 0 0
2386600000  0.091461200 -0.544882752 -0.350148704 -0.002739451 0 0 0 0
2421550000  0.133723784 -0.599732032 -0.329506496  0.063642748 0 0 0 0
2456500000  0.175108448 -0.654015936 -0.288876768  0.116943544 0 0 0 0
2491450000  0.209759136 -0.703662720 -0.235972080  0.148962896 0 0 0 0
2526400000  0.239904048 -0.732618240 -0.191346368  0.154552832 0 0 0 0
2561350000  0.254778592 -0.744257600 -0.162975200  0.153818656 0 0 0 0
2596300000  0.243547056 -0.749153152 -0.149627424  0.153487616 0 0 0 0
2631250000  0.206523584 -0.765551936 -0.139493728  0.162615072 0 0 0 0
2666200000  0.178116144 -0.790997056 -0.122198000  0.182188288 0 0 0 0
2701150000  0.113722536 -0.813499840 -0.093573744  0.203073360 0 0 0 0
2736100000  0.094987992 -0.835972608 -0.049303096  0.210323744 0 0 0 0
2771050000  0.105343728 -0.856527488 -0.011421432  0.190182864 0 0 0 0
2806000000  0.129854608 -0.857617408  0.003873278  0.162698752 0 0 0 0
2840950000  0.166514272 -0.861451648  0.000464401  0.145794608 0 0 0 0
2875900000  0.196420752 -0.842039744 -0.005715587  0.145302176 0 0 0 0
2910850000  0.199547792 -0.835026752 -0.005419840  0.158645504 0 0 0 0
2945800000  0.144400544 -0.819351040  0.010125397  0.179462352 0 0 0 0
2980750000  0.083000992 -0.808018496  0.044522136  0.196453024 0 0 0 0
3015700000  0.026710020 -0.804230720  0.099643616  0.188376912 0 0 0 0
3050650000  0.011730016 -0.797606592  0.135338624  0.146423056 0 0 0 0
3085600000  0.021663738 -0.809408320  0.135216672  0.105836048 0 0 0 0
3120550000  0.055256644 -0.806016448  0.124473424  0.083522472 0 0 0 0
3155500000  0.130163192 -0.791808128  0.116053008  0.083102280 0 0 0 0
3190450000  0.200685456 -0.762805696  0.123217056  0.087321544 0 0 0 0
3225400000  0.235242032 -0.738547712  0.147096800  0.083266568 0 0 0 0
3260350000  0.235119392 -0.713241664  0.178887376  0.068175576 0 0 0 0
3295300000  0.191617712 -0.698997376  0.209394288  0.024710862 0 0 0 0
3330250000  0.146554352 -0.687903168  0.208410192 -0.038478316 0 0 0 0
3365200000  0.114736440 -0.699293056  0.166623600 -0.085496000 0 0 0 0
3400150000  0.113668416 -0.722208128  0.125549856 -0.085015480 0 0 0 0
3435100000  0.148468192 -0.768459456  0.098662352 -0.076964072 0 0 0 0
3470050000  0.203429280 -0.774110016  0.088950912 -0.068763144 0 0 0 0
3505000000  0.286363232 -0.787438848  0.090518528 -0.066802816 0 0 0 0
3539950000  0.367265088 -0.794364224  0.093005976 -0.076653048 0 0 0 0
3574900000  0.399327776 -0.775007744  0.092825184 -0.095566960 0 0 0 0
3609850000  0.363303232 -0.750708544  0.076752960 -0.121856528 0 0 0 0
3644800000  0.254156176 -0.741168640  0.042114324 -0.136116544 0 0 0 0
3679750000  0.140837312 -0.724605696  0.006047431 -0.124200760 0 0 0 0
3714700000  0.049409708 -0.737558400 -0.010062654 -0.100841272 0 0 0 0
3749650000  0.018398850 -0.767316928 -0.010967125 -0.084148568 0 0 0 0
3784600000  0.101383640 -0.816052224 -0.005516656 -0.077796368 0 0 0 0
3819550000  0.237287664 -0.841506880 -0.003188847 -0.079432544 0 0 0 0
3854500000  0.377197216 -0.837835200 -0.004628981 -0.086591248 0 0 0 0
3889450000  0.448181920 -0.794082176 -0.013401147 -0.096524512 0 0 0 0
3924400000  0.429197856 -0.746322816 -0.032582288 -0.104103696 0 0 0 0
3959350000  0.298176064 -0.672155840 -0.065330648 -0.090799160 0 0 0 0
3994300000  0.110378160 -0.548928576 -0.078249752 -0.058598996 0 0 0 0
4029250000 -0.038064872 -0.481537088 -0.068711984 -0.038767944 0 0 0 0
4064200000 -0.120824376 -0.482337024 -0.058164992 -0.031635848 0 0 0 0
4099150000 -0.098553040 -0.542798080 -0.052381680 -0.032111004 0 0 0 0
4134100000  0.027570540 -0.644754240 -0.052123140 -0.034787868 0 0 0 0
4169050000  0.208534640 -0.728220032 -0.057087748 -0.037912972 0 0 0 0
4204000000  0.400112736 -0.768253760 -0.069598808 -0.038044820 0 0 0 0
4238950000  0.540536192 -0.745305728 -0.088273216 -0.022151804 0 0 0 0
4273900000  0.535691456 -0.574787200 -0.086577784  0.008235415 0 0 0 0
4308850000  0.499107072 -0.318969088 -0.066772780  0.019777850 0 0 0 0
4343800000  0.434670144 -0.102228848 -0.054380252  0.016731415 0 0 0 0
4378750000  0.337388704  0.020238670 -0.050631304  0.012288233 0 0 0 0
4413700000  0.255640544  0.032385008 -0.052113312  0.010925878 0 0 0 0
4448650000  0.240028448 -0.052525184 -0.056721376  0.011950995 0 0 0 0
4483600000  0.324918592 -0.231873232 -0.063200096  0.017831152 0 0 0 0
4518550000  0.473527296 -0.480489920 -0.068656392  0.031386000 0 0 0 0
4553500000  0.585428288 -0.679205440 -0.061875440  0.052222580 0 0 0 0
4588450000  0.658005888 -0.689410176 -0.042727180  0.061028376 0 0 0 0
4623400000  0.740810368 -0.544671552 -0.028437216  0.056916372 0 0 0 0
4658350000  0.789427200 -0.365162688 -0.024300460  0.051308468 0 0 0 0
4693300000  0.786494080 -0.197389888 -0.023097298  0.049757220 0 0 0 0
4728250000  0.741169344 -0.102693808 -0.021426344  0.051734420 0 0 0 0
4763200000  0.707556672 -0.080777496 -0.018592220  0.055408060 0 0 0 0
4798150000  0.694303296 -0.212052928 -0.013530813  0.062150352 0 0 0 0
4833100000  0.696874560 -0.389187200 -0.003914951  0.070542968 0 0 0 0
4868050000  0.702590720 -0.573167744  0.013512951  0.071479512 0 0 0 0
4903000000  0.712583616 -0.653863616  0.025141550  0.061217332 0 0 0 0
4937950000  0.768364992 -0.627525120  0.027676366  0.050928556 0 0 0 0
4972900000  0.813480192 -0.532608032  0.026952974  0.046095640 0 0 0 0
5007850000  0.856329408 -0.411305056  0.029110518  0.043414608 0 0 0 0
5042800000  0.855797760 -0.293015872  0.033261956  0.041537804 0 0 0 0
5077750000  0.842980864 -0.222780592  0.038203336  0.039351472 0 0 0 0
5112700000  0.820365056 -0.253515152  0.046293624  0.036288212 0 0 0 0
5147650000  0.788433536 -0.341875552  0.055094016  0.029625518 0 0 0 0
5182600000  0.761055360 -0.452848448  0.058961880  0.017696884 0 0 0 0
5217550000  0.744424000 -0.540838400  0.055026688  0.006781770 0 0 0 0
5252500000  0.770251712 -0.560008832  0.048995264  0.003889852 0 0 0 0
5287450000  0.827676096 -0.523022368  0.045369592  0.002290933 0 0 0 0
5322400000  0.867143488 -0.458817088  0.044294660  0.001226749 0 0 0 0
5357350000  0.882100224 -0.352588000  0.044110948 -0.002684043 0 0 0 0
5392300000  0.904322688 -0.243101456  0.044405136 -0.007101861 0 0 0 0
5427250000  0.890691392 -0.240673568  0.045184796 -0.013642903 0 0 0 0
5462200000  0.869472960 -0.278542720  0.043426680 -0.022896158 0 0 0 0
5497150000  0.835937472 -0.366603872  0.036650140 -0.031192198 0 0 0 0
5532100000  0.811809984 -0.446615456  0.029726490 -0.033716696 0 0 0 0
5567050000  0.818956352 -0.503400256  0.026018718 -0.032356908 0 0 0 0
5602000000  0.854891264 -0.494718496  0.024968308 -0.031143744 0 0 0 0
5636950000  0.903194432 -0.435960704  0.025434656 -0.031466686 0 0 0 0
5671900000  0.892307520 -0.364330304  0.024233360 -0.033263204 0 0 0 0
5706850000  0.930586880 -0.256676496  0.022880902 -0.036700544 0 0 0 0
5741800000  0.929908416 -0.209994896  0.017189140 -0.043442536 0 0 0 0
5776750000  0.908635072 -0.214414128  0.009831407 -0.047686728 0 0 0 0
5811700000  0.885027648 -0.262236480 -0.000218699 -0.047604272 0 0 0 0
5846650000  0.845547008 -0.333192896 -0.006666558 -0.043867280 0 0 0 0
5881600000  0.860221696 -0.386972256 -0.008771558 -0.039968256 0 0 0 0
5916550000  0.866408064 -0.420598880 -0.009707887 -0.038019716 0 0 0 0
5951500000  0.894710464 -0.380429376 -0.010269350 -0.038837540 0 0 0 0
5986450000  0.900319360 -0.306554752 -0.015430417 -0.038895908 0 0 0 0
6021400000  0.945463424 -0.222556560 -0.021884048 -0.039637532 0 0 0 0
6056350000  0.941567872 -0.144792992 -0.032427154 -0.036970676 0 0 0 0
6091300000  0.926184768 -0.121026504 -0.042167188 -0.029330254 0 0 0 0
6126250000  0.909064320 -0.132517872 -0.044049616 -0.020302394 0 0 0 0
6161200000  0.891741056 -0.191617680 -0.040914456 -0.012098838 0 0 0 0
6196150000  0.887144384 -0.264409744 -0.035686388 -0.009313801 0 0 0 0
6231100000  0.912306816 -0.289855072 -0.032314844 -0.007877774 0 0 0 0
6266050000  0.934747264 -0.307159360 -0.031540252 -0.006742528 0 0 0 0
6301000000  0.953009728 -0.243257456 -0.032274210 -0.003400537 0 0 0 0
6335950000  1.004044056 -0.169808944 -0.038609016  0.003348189 0 0 0 0
6370900000  0.989982464 -0.091165224 -0.036991792  0.010953109 0 0 0 0
6405850000  0.973081856 -0.042792448 -0.031473868  0.020215882 0 0 0 0
6440800000  0.960116224 -0.062501120 -0.022993138  0.023976156 0 0 0 0
6475750000  0.943798208 -0.102495504 -0.016507643  0.021219690 0 0 0 0
6510700000  0.945457984 -0.178401984 -0.016305654  0.021475632 0 0 0 0
6545650000  0.946405632 -0.246252048 -0.015723728  0.019184324 0 0 0 0
6580600000  0.951106176 -0.213575312 -0.017876114  0.020156412 0 0 0 0
6615550000  0.983284096 -0.205483072 -0.018387156  0.022825102 0 0 0 0
6650500000  0.999289152 -0.146668624 -0.019647912  0.028119696 0 0 0 0
6685450000  0.967234880 -0.096346456 -0.013862888  0.031172620 0 0 0 0
6720400000  0.977110656 -0.023640770 -0.010351807  0.031230902 0 0 0 0
6755350000  0.963863104  0.010397129 -0.000936336  0.030679826 0 0 0 0
6790300000  0.943443776 -0.020536910  0.003644200  0.028672836 0 0 0 0
6825250000  0.972654144 -0.035458248  0.002350371  0.025722534 0 0 0 0
6860200000  0.939562816 -0.117821096  0.001971074  0.025097072 0 0 0 0
6895150000  0.918379840 -0.115941864  0.001008483  0.027308462 0 0 0 0
6930100000  0.935886592 -0.133202928  0.000067017  0.030801732 0 0 0 0
6965050000  0.975627328 -0.105662648  0.009107990  0.032835622 0 0 0 0
7000000000  0.989651712 -0.017719692  0.016644538  0.033886760 0 0 0 0
