!File created by NanoVNA
# Hz S RI R 50
  10000000 -0.290628480  0.016335208
  44950000 -0.272607136  0.054782948
  79900000 -0.248911008  0.091192560
 114850000 -0.213783040  0.129023848
 149800000 -0.168274752  0.151396128
 184750000 -0.113009952  0.161571936
 219700000 -0.054066572  0.157062352
 254650000  0.003360251  0.139902096
 289600000  0.054605700  0.113671448
 324550000  0.100520640  0.079564368
 359500000  0.142392000  0.037453372
 394450000  0.181311808 -0.014917802
 429400000  0.213700624 -0.078860368
 464350000  0.235328352 -0.152204000
 499300000  0.243137680 -0.228023840
 534250000  0.236930048 -0.299188512
 569200000  0.219866000 -0.362545856
 604150000  0.192453936 -0.417232096
 639100000  0.157382480 -0.465475392
 674050000  0.113398616 -0.509744000
 709000000  0.063089632 -0.547643392
 743950000  0.013058729 -0.579995840
 778900000 -0.033597092 -0.602885760
 813850000 -0.079588152 -0.615346560
 848800000 -0.120610424 -0.617861952
 883750000 -0.160253184 -0.609030656
 918700000 -0.203223936 -0.590755904
 953650000 -0.241034912 -0.563967872
 988600000 -0.278844672 -0.532765792
1023550000 -0.306717568 -0.500185120
1058500000 -0.324763712 -0.467066304
1093450000 -0.332846496 -0.430676256
1128400000 -0.326185504 -0.384892352
1163350000 -0.303171136 -0.333386112
1198300000 -0.262374368 -0.274839680
1233250000 -0.200995936 -0.225620480
1268200000 -0.129401464 -0.196284496
1303150000 -0.056229300 -0.193055776
1338100000  0.012120378 -0.214332272
1373050000  0.075735136 -0.256104288
1408000000  0.134259504 -0.315561664
1442950000  0.183393248 -0.390313376
1477900000  0.218741360 -0.468847712
1512850000  0.232604240 -0.542752832
1547800000  0.226538912 -0.604525760
1582750000  0.203443840 -0.650574400
1617700000  0.167529760 -0.693716480
1652650000  0.125358536 -0.724029440
1687600000  0.086906200 -0.754916160
1722550000  0.051890584 -0.781591168
1757500000  0.023913640 -0.800125248
1792450000  0.004207701 -0.819071360
1827400000 -0.012662232 -0.825112896
1862350000 -0.025265472 -0.821628480
1897300000 -0.047492344 -0.814196928
1932250000 -0.080416872 -0.793982592
1967200000 -0.115695768 -0.784599168
2002150000 -0.147583264 -0.762470080
2037100000 -0.176896400 -0.746739264
2072050000 -0.195841520 -0.728983168
2107000000 -0.196359120 -0.703272192
2141950000 -0.176289696 -0.669303296
2176900000 -0.144370432 -0.623878272
2211850000 -0.101333016 -0.575673664
2246800000 -0.057093660 -0.532221728
2281750000 -0.011326501 -0.506861632
2316700000  0.022292760 -0.498298368
2351650000  0.053464048 -0.509910752
2386600000  0.090329408 -0.545112640
2421550000  0.132657512 -0.600533632
2456500000  0.176064272 -0.653661056
2491450000  0.208870720 -0.703422912
2526400000  0.241702992 -0.731885824
2561350000  0.258076464 -0.743645760
2596300000  0.245340016 -0.754288128
2631250000  0.211760880 -0.765445440
2666200000  0.174837200 -0.793299648
2701150000  0.118779656 -0.812265856
2736100000  0.096614608 -0.836416448
2771050000  0.108908040 -0.857044352
2806000000  0.130344912 -0.859552640
2840950000  0.167607904 -0.860789632
2875900000  0.193814368 -0.841197312
2910850000  0.203662656 -0.829035392
2945800000  0.153390464 -0.819674368
2980750000  0.090213056 -0.804357248
3015700000  0.030939872 -0.803224768
3050650000  0.012448112 -0.798131712
3085600000  0.018555198 -0.811305600
3120550000  0.056109004 -0.806971584
3155500000  0.130038288 -0.792245824
3190450000  0.202271104 -0.763070080
3225400000  0.236630944 -0.738154112
3260350000  0.238294000 -0.711866944
3295300000  0.195063664 -0.695461120
3330250000  0.148615088 -0.686830208
3365200000  0.111551304 -0.699680192
3400150000  0.113509168 -0.723057408
3435100000  0.150324544 -0.769563840
3470050000  0.194468080 -0.775168704
3505000000  0.289051328 -0.785385792
3539950000  0.380368512 -0.786108288
3574900000  0.394357984 -0.779764800
3609850000  0.364420960 -0.748793216
3644800000  0.256229616 -0.740643328
3679750000  0.137903216 -0.724976512
3714700000  0.047108400 -0.738820032
3749650000  0.020897798 -0.770460352
3784600000  0.098415376 -0.818175040
3819550000  0.238372832 -0.839193024
3854500000  0.374477984 -0.837482752
3889450000  0.451719648 -0.793565184
3924400000  0.427182880 -0.748798912
3959350000  0.296610112 -0.670747520
3994300000  0.110016104 -0.545887040
4029250000 -0.049471032 -0.471642272
4064200000 -0.126733784 -0.475427232
4099150000 -0.102703992 -0.537481024
4134100000  0.012770186 -0.642780160
4169050000  0.202033184 -0.725808896
4204000000  0.399668352 -0.765738624
4238950000  0.545575616 -0.741201536
4273900000  0.542312000 -0.570407744
4308850000  0.509155680 -0.312899072
4343800000  0.445444416 -0.095684976
4378750000  0.349501312  0.028721750
4413700000  0.270973248  0.048359076
4448650000  0.251191680 -0.041092536
4483600000  0.333588064 -0.224770704
4518550000  0.479456448 -0.477434176
4553500000  0.588946496 -0.676154624
4588450000  0.661485376 -0.687188160
4623400000  0.744284800 -0.545576704
4658350000  0.794602176 -0.364848576
4693300000  0.791707328 -0.203604960
4728250000  0.747491008 -0.106006424
4763200000  0.715630784 -0.096114328
4798150000  0.701293312 -0.204755568
4833100000  0.700771392 -0.393056128
4868050000  0.706704768 -0.569199040
4903000000  0.717070336 -0.650217792
4937950000  0.780733632 -0.618583296
4972900000  0.809132288 -0.538600320
5007850000  0.861202304 -0.407449568
5042800000  0.853069440 -0.310308032
5077750000  0.844646336 -0.234528400
5112700000  0.824285376 -0.254342832
5147650000  0.790658560 -0.343039200
5182600000  0.760890112 -0.457128800
5217550000  0.742889344 -0.539795904
5252500000  0.765633152 -0.560402432
5287450000  0.828749568 -0.523271968
5322400000  0.868143296 -0.459165088
5357350000  0.889918208 -0.339716480
5392300000  0.904803968 -0.243926080
5427250000  0.892065792 -0.232453920
5462200000  0.870287040 -0.276637120
5497150000  0.836593088 -0.367963296
5532100000  0.822838336 -0.439838112
5567050000  0.809016576 -0.508587008
5602000000  0.852161088 -0.496462528
5636950000  0.896753024 -0.454068192
5671900000  0.895266304 -0.356591136
5706850000  0.932076544 -0.250878128
5741800000  0.929322432 -0.208033264
5776750000  0.911366016 -0.216946688
5811700000  0.885203904 -0.261111920
5846650000  0.841671680 -0.338046400
5881600000  0.841435456 -0.404209152
5916550000  0.867833984 -0.416133024
5951500000  0.889667840 -0.401549856
5986450000  0.903607744 -0.314518976
6021400000  0.943677440 -0.216151392
6056350000  0.941978880 -0.141375232
6091300000  0.928725504 -0.112550200
6126250000  0.909406016 -0.130641280
6161200000  0.896150144 -0.190502320
6196150000  0.886208448 -0.273705280
6231100000  0.913657600 -0.284144096
6266050000  0.934974656 -0.328277312
6301000000  0.955289216 -0.251243296
6335950000  0.999721216 -0.161996144
6370900000  0.994067392 -0.095089504
6405850000  0.964944640 -0.050393744
6440800000  0.957614912 -0.039905144
6475750000  0.949706048 -0.082298104
6510700000  0.930963136 -0.170276512
6545650000  0.981916800 -0.252669040
6580600000  0.973077504 -0.251030512
6615550000  0.984037632 -0.198001568
6650500000  0.995270016 -0.143220368
6685450000  0.989064192 -0.066337584
6720400000  0.984071360  0.024138444
6755350000  0.964890688  0.024348802
6790300000  0.943833088 -0.057642536
6825250000  0.907630016  0.006253142
6860200000  0.968080640 -0.154145472
6895150000  0.927447744 -0.109649376
6930100000  0.940983104 -0.122885560
6965050000  0.970288064 -0.107109408
7000000000  0.969999360 -0.032666482
